!Agilent Technologies,E5071C,MY46107443,A.09.30
!Date: Tue May 03 14:29:19 2016
!Data & Calibration Information:
!Freq	S11:SOLT2(ON)	S21:SOLT2(ON)	S12:SOLT2(ON)	S22:SOLT2(ON)
# Hz S dB R 50
2000000000	-6.281839e+000	1.305890e+002	1.332188e+001	-8.445211e+001	-2.418475e+001	-1.148933e+002	-1.337841e+001	1.007379e+002
2004000000	-6.304369e+000	1.302235e+002	1.331275e+001	-8.510946e+001	-2.413702e+001	-1.156140e+002	-1.338511e+001	1.000558e+002
2008000000	-6.318521e+000	1.298551e+002	1.330315e+001	-8.576318e+001	-2.408389e+001	-1.162178e+002	-1.338049e+001	9.941089e+001
2012000000	-6.340256e+000	1.294805e+002	1.329161e+001	-8.642164e+001	-2.402961e+001	-1.168604e+002	-1.337612e+001	9.867791e+001
2016000000	-6.360471e+000	1.290924e+002	1.328145e+001	-8.708396e+001	-2.397114e+001	-1.174811e+002	-1.337267e+001	9.798074e+001
2020000000	-6.375614e+000	1.287178e+002	1.327036e+001	-8.774160e+001	-2.391530e+001	-1.181290e+002	-1.336314e+001	9.722667e+001
2024000000	-6.396221e+000	1.283186e+002	1.325622e+001	-8.840606e+001	-2.384432e+001	-1.187696e+002	-1.336015e+001	9.651524e+001
2028000000	-6.408521e+000	1.279607e+002	1.324622e+001	-8.906510e+001	-2.379584e+001	-1.194242e+002	-1.335425e+001	9.576070e+001
2032000000	-6.420062e+000	1.275442e+002	1.323388e+001	-8.973782e+001	-2.375260e+001	-1.200847e+002	-1.334542e+001	9.498081e+001
2036000000	-6.438746e+000	1.271471e+002	1.322057e+001	-9.040553e+001	-2.367961e+001	-1.206725e+002	-1.333902e+001	9.417461e+001
2040000000	-6.454780e+000	1.267375e+002	1.320533e+001	-9.108048e+001	-2.362891e+001	-1.211957e+002	-1.333468e+001	9.338373e+001
2044000000	-6.466419e+000	1.263124e+002	1.319189e+001	-9.175294e+001	-2.357322e+001	-1.220477e+002	-1.332208e+001	9.261123e+001
2048000000	-6.482259e+000	1.258911e+002	1.317604e+001	-9.242107e+001	-2.353160e+001	-1.225657e+002	-1.330682e+001	9.175223e+001
2052000000	-6.500647e+000	1.254969e+002	1.315836e+001	-9.310613e+001	-2.346824e+001	-1.232227e+002	-1.330042e+001	9.096438e+001
2056000000	-6.511397e+000	1.250607e+002	1.314223e+001	-9.377570e+001	-2.340837e+001	-1.238900e+002	-1.328537e+001	9.015012e+001
2060000000	-6.528578e+000	1.246311e+002	1.312496e+001	-9.444820e+001	-2.336576e+001	-1.245793e+002	-1.327691e+001	8.923280e+001
2064000000	-6.549807e+000	1.241902e+002	1.310648e+001	-9.511267e+001	-2.331187e+001	-1.252988e+002	-1.326832e+001	8.840055e+001
2068000000	-6.565157e+000	1.237477e+002	1.308691e+001	-9.578368e+001	-2.325600e+001	-1.258907e+002	-1.325444e+001	8.754378e+001
2072000000	-6.579058e+000	1.232713e+002	1.306587e+001	-9.645490e+001	-2.321798e+001	-1.267117e+002	-1.323999e+001	8.668649e+001
2076000000	-6.597786e+000	1.228398e+002	1.304311e+001	-9.710707e+001	-2.317191e+001	-1.273215e+002	-1.323273e+001	8.586803e+001
2080000000	-6.617535e+000	1.223568e+002	1.302214e+001	-9.774956e+001	-2.312238e+001	-1.279102e+002	-1.320894e+001	8.501078e+001
2084000000	-6.633640e+000	1.218649e+002	1.300137e+001	-9.840220e+001	-2.307153e+001	-1.286627e+002	-1.318804e+001	8.405589e+001
2088000000	-6.652935e+000	1.213551e+002	1.297740e+001	-9.904133e+001	-2.301486e+001	-1.292946e+002	-1.317756e+001	8.314164e+001
2092000000	-6.671425e+000	1.208332e+002	1.295333e+001	-9.968956e+001	-2.299657e+001	-1.299690e+002	-1.314683e+001	8.222987e+001
2096000000	-6.695600e+000	1.202964e+002	1.293028e+001	-1.003050e+002	-2.294047e+001	-1.306109e+002	-1.312473e+001	8.126647e+001
2100000000	-6.713121e+000	1.197678e+002	1.290696e+001	-1.009407e+002	-2.288274e+001	-1.313867e+002	-1.310082e+001	8.032697e+001
2104000000	-6.734677e+000	1.191996e+002	1.287931e+001	-1.015640e+002	-2.284723e+001	-1.320187e+002	-1.307078e+001	7.936966e+001
2108000000	-6.755058e+000	1.186319e+002	1.285645e+001	-1.021704e+002	-2.279939e+001	-1.326465e+002	-1.303948e+001	7.839430e+001
2112000000	-6.780526e+000	1.180877e+002	1.282970e+001	-1.027754e+002	-2.274575e+001	-1.334214e+002	-1.301258e+001	7.740667e+001
2116000000	-6.801376e+000	1.174877e+002	1.280497e+001	-1.033936e+002	-2.270799e+001	-1.340254e+002	-1.296758e+001	7.635881e+001
2120000000	-6.824149e+000	1.168806e+002	1.277873e+001	-1.039929e+002	-2.264701e+001	-1.347010e+002	-1.293952e+001	7.536750e+001
2124000000	-6.846911e+000	1.162515e+002	1.275121e+001	-1.045867e+002	-2.260561e+001	-1.354242e+002	-1.290329e+001	7.430953e+001
2128000000	-6.872538e+000	1.156207e+002	1.272384e+001	-1.051641e+002	-2.255928e+001	-1.361311e+002	-1.286638e+001	7.327591e+001
2132000000	-6.897711e+000	1.150113e+002	1.269640e+001	-1.057382e+002	-2.252788e+001	-1.368867e+002	-1.283081e+001	7.226796e+001
2136000000	-6.926781e+000	1.143326e+002	1.266783e+001	-1.063211e+002	-2.247568e+001	-1.376201e+002	-1.278945e+001	7.126143e+001
2140000000	-6.953439e+000	1.137069e+002	1.263982e+001	-1.068844e+002	-2.243253e+001	-1.383400e+002	-1.273786e+001	7.024316e+001
2144000000	-6.981259e+000	1.130420e+002	1.261339e+001	-1.074468e+002	-2.240252e+001	-1.390155e+002	-1.269191e+001	6.922751e+001
2148000000	-7.006167e+000	1.123925e+002	1.258639e+001	-1.079850e+002	-2.235559e+001	-1.397263e+002	-1.261765e+001	6.819455e+001
2152000000	-7.032039e+000	1.117049e+002	1.256164e+001	-1.085292e+002	-2.230594e+001	-1.404838e+002	-1.256253e+001	6.697264e+001
2156000000	-7.067707e+000	1.110072e+002	1.253069e+001	-1.090597e+002	-2.227816e+001	-1.412329e+002	-1.251069e+001	6.593616e+001
2160000000	-7.098567e+000	1.102799e+002	1.250461e+001	-1.095794e+002	-2.223737e+001	-1.419808e+002	-1.245194e+001	6.479398e+001
2164000000	-7.126784e+000	1.095472e+002	1.247740e+001	-1.100813e+002	-2.218643e+001	-1.426646e+002	-1.239326e+001	6.363876e+001
2168000000	-7.162098e+000	1.087831e+002	1.245198e+001	-1.105866e+002	-2.215897e+001	-1.434510e+002	-1.232554e+001	6.249430e+001
2172000000	-7.199792e+000	1.080192e+002	1.242671e+001	-1.110700e+002	-2.210782e+001	-1.441746e+002	-1.225610e+001	6.133157e+001
2176000000	-7.237177e+000	1.072199e+002	1.239881e+001	-1.115343e+002	-2.208242e+001	-1.449510e+002	-1.219677e+001	6.011055e+001
2180000000	-7.279489e+000	1.064077e+002	1.237435e+001	-1.119982e+002	-2.203799e+001	-1.457099e+002	-1.212864e+001	5.893892e+001
2184000000	-7.321773e+000	1.055898e+002	1.235080e+001	-1.124324e+002	-2.200624e+001	-1.465064e+002	-1.204946e+001	5.771841e+001
2188000000	-7.365211e+000	1.047394e+002	1.232782e+001	-1.128597e+002	-2.198274e+001	-1.473285e+002	-1.196501e+001	5.650590e+001
2192000000	-7.405181e+000	1.038683e+002	1.230958e+001	-1.132748e+002	-2.195193e+001	-1.481396e+002	-1.189212e+001	5.522236e+001
2196000000	-7.453143e+000	1.029689e+002	1.228910e+001	-1.136799e+002	-2.192209e+001	-1.489485e+002	-1.180687e+001	5.399156e+001
2200000000	-7.497019e+000	1.020313e+002	1.227276e+001	-1.140644e+002	-2.189512e+001	-1.497515e+002	-1.171266e+001	5.264554e+001
2204000000	-7.551537e+000	1.010526e+002	1.225688e+001	-1.144330e+002	-2.187348e+001	-1.504538e+002	-1.162515e+001	5.131947e+001
2208000000	-7.599259e+000	1.000554e+002	1.224600e+001	-1.147973e+002	-2.185516e+001	-1.513117e+002	-1.153292e+001	4.997442e+001
2212000000	-7.655039e+000	9.906120e+001	1.223856e+001	-1.151498e+002	-2.182501e+001	-1.520977e+002	-1.143375e+001	4.862996e+001
2216000000	-7.714310e+000	9.802350e+001	1.223383e+001	-1.154979e+002	-2.180803e+001	-1.528705e+002	-1.133538e+001	4.726735e+001
2220000000	-7.777781e+000	9.695743e+001	1.223304e+001	-1.158493e+002	-2.177673e+001	-1.536648e+002	-1.123511e+001	4.584201e+001
2224000000	-7.844871e+000	9.587681e+001	1.223343e+001	-1.161983e+002	-2.176567e+001	-1.544326e+002	-1.113174e+001	4.437289e+001
2228000000	-7.908968e+000	9.474424e+001	1.223595e+001	-1.165206e+002	-2.174154e+001	-1.552499e+002	-1.103188e+001	4.292858e+001
2232000000	-7.983090e+000	9.361264e+001	1.224736e+001	-1.168471e+002	-2.172892e+001	-1.560275e+002	-1.092272e+001	4.148258e+001
2236000000	-8.063054e+000	9.241664e+001	1.226207e+001	-1.171898e+002	-2.171034e+001	-1.568569e+002	-1.081293e+001	3.995599e+001
2240000000	-8.146469e+000	9.120656e+001	1.227917e+001	-1.175270e+002	-2.169507e+001	-1.576903e+002	-1.070698e+001	3.844600e+001
2244000000	-8.241168e+000	8.999296e+001	1.230043e+001	-1.178628e+002	-2.167446e+001	-1.585513e+002	-1.059892e+001	3.688674e+001
2248000000	-8.335224e+000	8.875904e+001	1.232690e+001	-1.182180e+002	-2.168028e+001	-1.593300e+002	-1.049227e+001	3.533488e+001
2252000000	-8.439449e+000	8.746749e+001	1.235901e+001	-1.185772e+002	-2.169584e+001	-1.602031e+002	-1.038380e+001	3.371379e+001
2256000000	-8.552546e+000	8.616388e+001	1.239321e+001	-1.189583e+002	-2.167878e+001	-1.609813e+002	-1.027829e+001	3.214525e+001
2260000000	-8.672885e+000	8.486204e+001	1.243609e+001	-1.193543e+002	-2.167872e+001	-1.618413e+002	-1.016801e+001	3.047346e+001
2264000000	-8.800278e+000	8.350386e+001	1.247833e+001	-1.197809e+002	-2.167441e+001	-1.626330e+002	-1.005841e+001	2.879089e+001
2268000000	-8.931571e+000	8.215688e+001	1.252334e+001	-1.202293e+002	-2.169234e+001	-1.632959e+002	-9.950760e+000	2.708666e+001
2272000000	-9.074923e+000	8.077982e+001	1.257583e+001	-1.207042e+002	-2.168815e+001	-1.641311e+002	-9.854526e+000	2.540316e+001
2276000000	-9.221303e+000	7.932234e+001	1.262861e+001	-1.212077e+002	-2.169633e+001	-1.648533e+002	-9.749211e+000	2.364857e+001
2280000000	-9.376925e+000	7.788106e+001	1.268239e+001	-1.217507e+002	-2.169346e+001	-1.655907e+002	-9.656122e+000	2.189357e+001
2284000000	-9.540918e+000	7.643466e+001	1.273775e+001	-1.223096e+002	-2.170916e+001	-1.663436e+002	-9.558648e+000	2.015422e+001
2288000000	-9.713595e+000	7.489170e+001	1.279665e+001	-1.229259e+002	-2.171933e+001	-1.670754e+002	-9.465264e+000	1.841008e+001
2292000000	-9.895697e+000	7.337964e+001	1.285638e+001	-1.235644e+002	-2.173442e+001	-1.677471e+002	-9.368372e+000	1.662995e+001
2296000000	-1.008933e+001	7.184305e+001	1.291290e+001	-1.242407e+002	-2.173929e+001	-1.683495e+002	-9.284348e+000	1.483695e+001
2300000000	-1.028466e+001	7.027086e+001	1.297084e+001	-1.249588e+002	-2.174284e+001	-1.690520e+002	-9.198510e+000	1.307023e+001
2304000000	-1.048988e+001	6.867963e+001	1.302911e+001	-1.256974e+002	-2.175792e+001	-1.696993e+002	-9.113307e+000	1.130771e+001
2308000000	-1.070347e+001	6.708152e+001	1.308303e+001	-1.264761e+002	-2.177721e+001	-1.703735e+002	-9.033272e+000	9.529415e+000
2312000000	-1.093114e+001	6.547363e+001	1.313585e+001	-1.272771e+002	-2.177876e+001	-1.709843e+002	-8.960299e+000	7.772111e+000
2316000000	-1.115482e+001	6.383416e+001	1.318627e+001	-1.280828e+002	-2.178660e+001	-1.716196e+002	-8.890247e+000	6.044405e+000
2320000000	-1.138932e+001	6.216894e+001	1.323635e+001	-1.289345e+002	-2.179744e+001	-1.721652e+002	-8.822764e+000	4.346751e+000
2324000000	-1.164080e+001	6.044933e+001	1.328489e+001	-1.297879e+002	-2.180698e+001	-1.727857e+002	-8.753068e+000	2.646590e+000
2328000000	-1.190312e+001	5.874064e+001	1.333186e+001	-1.306771e+002	-2.181444e+001	-1.734190e+002	-8.687994e+000	9.916833e-001
2332000000	-1.216838e+001	5.704151e+001	1.337583e+001	-1.315967e+002	-2.181409e+001	-1.740041e+002	-8.620038e+000	-6.481493e-001
2336000000	-1.243461e+001	5.527502e+001	1.341890e+001	-1.325387e+002	-2.181876e+001	-1.746200e+002	-8.551517e+000	-2.271729e+000
2340000000	-1.272546e+001	5.344642e+001	1.345652e+001	-1.334872e+002	-2.182192e+001	-1.751516e+002	-8.488342e+000	-3.906557e+000
2344000000	-1.300679e+001	5.161630e+001	1.349058e+001	-1.344534e+002	-2.181263e+001	-1.757658e+002	-8.425604e+000	-5.528798e+000
2348000000	-1.330855e+001	4.968675e+001	1.352431e+001	-1.354384e+002	-2.181688e+001	-1.763411e+002	-8.362269e+000	-7.127345e+000
2352000000	-1.362244e+001	4.772278e+001	1.355399e+001	-1.364223e+002	-2.181802e+001	-1.769269e+002	-8.302557e+000	-8.675094e+000
2356000000	-1.393043e+001	4.569865e+001	1.358001e+001	-1.374222e+002	-2.180525e+001	-1.774698e+002	-8.242265e+000	-1.026294e+001
2360000000	-1.425347e+001	4.363023e+001	1.360497e+001	-1.384445e+002	-2.180829e+001	-1.780804e+002	-8.176930e+000	-1.180947e+001
2364000000	-1.458194e+001	4.149185e+001	1.362479e+001	-1.394559e+002	-2.181903e+001	-1.786138e+002	-8.123138e+000	-1.335665e+001
2368000000	-1.490831e+001	3.919299e+001	1.364444e+001	-1.404615e+002	-2.179702e+001	-1.792502e+002	-8.061657e+000	-1.484659e+001
2372000000	-1.525733e+001	3.680418e+001	1.365964e+001	-1.414987e+002	-2.178130e+001	-1.798037e+002	-8.001424e+000	-1.635467e+001
2376000000	-1.558993e+001	3.431196e+001	1.367530e+001	-1.425337e+002	-2.178187e+001	1.796785e+002	-7.937853e+000	-1.783180e+001
2380000000	-1.592692e+001	3.167794e+001	1.368545e+001	-1.435724e+002	-2.177077e+001	1.790174e+002	-7.882552e+000	-1.929953e+001
2384000000	-1.626839e+001	2.894581e+001	1.369246e+001	-1.446024e+002	-2.177148e+001	1.784037e+002	-7.825227e+000	-2.075686e+001
2388000000	-1.661180e+001	2.610183e+001	1.369993e+001	-1.456438e+002	-2.176210e+001	1.778026e+002	-7.767492e+000	-2.215389e+001
2392000000	-1.694196e+001	2.303000e+001	1.370352e+001	-1.466906e+002	-2.175232e+001	1.772725e+002	-7.708290e+000	-2.358662e+001
2396000000	-1.725585e+001	1.982534e+001	1.370561e+001	-1.477441e+002	-2.174957e+001	1.766416e+002	-7.648285e+000	-2.497581e+001
2400000000	-1.758164e+001	1.641157e+001	1.370538e+001	-1.487956e+002	-2.173377e+001	1.760512e+002	-7.589075e+000	-2.634112e+001
2404000000	-1.789193e+001	1.280184e+001	1.370116e+001	-1.498443e+002	-2.171963e+001	1.754694e+002	-7.539171e+000	-2.773815e+001
2408000000	-1.818993e+001	9.093957e+000	1.369734e+001	-1.508870e+002	-2.170553e+001	1.747754e+002	-7.480230e+000	-2.908748e+001
2412000000	-1.846623e+001	5.109699e+000	1.369016e+001	-1.519451e+002	-2.170713e+001	1.741596e+002	-7.425004e+000	-3.041967e+001
2416000000	-1.870402e+001	1.076159e+000	1.368198e+001	-1.529802e+002	-2.167885e+001	1.735476e+002	-7.371844e+000	-3.172088e+001
2420000000	-1.893129e+001	-3.219819e+000	1.367073e+001	-1.540269e+002	-2.168571e+001	1.728987e+002	-7.316582e+000	-3.305969e+001
2424000000	-1.912948e+001	-7.637584e+000	1.365942e+001	-1.550658e+002	-2.166758e+001	1.722295e+002	-7.263822e+000	-3.431934e+001
2428000000	-1.930453e+001	-1.230027e+001	1.364355e+001	-1.561048e+002	-2.166527e+001	1.715082e+002	-7.208083e+000	-3.559449e+001
2432000000	-1.941873e+001	-1.711012e+001	1.362848e+001	-1.571281e+002	-2.164565e+001	1.709577e+002	-7.156298e+000	-3.683286e+001
2436000000	-1.948911e+001	-2.182787e+001	1.361275e+001	-1.581582e+002	-2.164264e+001	1.703726e+002	-7.101923e+000	-3.807104e+001
2440000000	-1.951987e+001	-2.679381e+001	1.359648e+001	-1.591746e+002	-2.163713e+001	1.696367e+002	-7.043063e+000	-3.929137e+001
2444000000	-1.950662e+001	-3.170610e+001	1.357715e+001	-1.602077e+002	-2.164171e+001	1.690672e+002	-6.986382e+000	-4.050130e+001
2448000000	-1.945957e+001	-3.642028e+001	1.355672e+001	-1.612354e+002	-2.161393e+001	1.682536e+002	-6.927546e+000	-4.171401e+001
2452000000	-1.933312e+001	-4.108107e+001	1.353722e+001	-1.622463e+002	-2.162005e+001	1.676753e+002	-6.868525e+000	-4.290257e+001
2456000000	-1.920087e+001	-4.562826e+001	1.351315e+001	-1.632599e+002	-2.160764e+001	1.670416e+002	-6.808509e+000	-4.408766e+001
2460000000	-1.899041e+001	-4.998940e+001	1.348872e+001	-1.642807e+002	-2.158848e+001	1.664055e+002	-6.752134e+000	-4.526615e+001
2464000000	-1.876661e+001	-5.409918e+001	1.346518e+001	-1.652928e+002	-2.158616e+001	1.656974e+002	-6.693118e+000	-4.640486e+001
2468000000	-1.851225e+001	-5.813685e+001	1.343996e+001	-1.663025e+002	-2.157711e+001	1.650419e+002	-6.634417e+000	-4.755469e+001
2472000000	-1.823217e+001	-6.180637e+001	1.341443e+001	-1.673169e+002	-2.157779e+001	1.644472e+002	-6.572440e+000	-4.871034e+001
2476000000	-1.793020e+001	-6.527568e+001	1.338655e+001	-1.683335e+002	-2.157204e+001	1.637212e+002	-6.515292e+000	-4.985178e+001
2480000000	-1.762331e+001	-6.862255e+001	1.335609e+001	-1.693293e+002	-2.155660e+001	1.630799e+002	-6.460951e+000	-5.098842e+001
2484000000	-1.729006e+001	-7.164375e+001	1.332701e+001	-1.703379e+002	-2.155040e+001	1.624119e+002	-6.401008e+000	-5.209133e+001
2488000000	-1.696939e+001	-7.464100e+001	1.329470e+001	-1.713381e+002	-2.154010e+001	1.617228e+002	-6.346877e+000	-5.319267e+001
2492000000	-1.664965e+001	-7.732752e+001	1.326444e+001	-1.723246e+002	-2.153786e+001	1.609664e+002	-6.290517e+000	-5.424055e+001
2496000000	-1.630894e+001	-7.999347e+001	1.323432e+001	-1.733286e+002	-2.152832e+001	1.603400e+002	-6.236364e+000	-5.533564e+001
2500000000	-1.598964e+001	-8.242700e+001	1.320099e+001	-1.743157e+002	-2.151334e+001	1.597149e+002	-6.183527e+000	-5.639446e+001
2504000000	-1.565268e+001	-8.478867e+001	1.316661e+001	-1.752999e+002	-2.151874e+001	1.590346e+002	-6.127424e+000	-5.745577e+001
2508000000	-1.533605e+001	-8.710950e+001	1.313322e+001	-1.762975e+002	-2.152006e+001	1.582802e+002	-6.070251e+000	-5.850712e+001
2512000000	-1.501570e+001	-8.925791e+001	1.309758e+001	-1.772833e+002	-2.151194e+001	1.575963e+002	-6.020215e+000	-5.956049e+001
2516000000	-1.470403e+001	-9.136185e+001	1.306269e+001	-1.782796e+002	-2.150262e+001	1.569081e+002	-5.967525e+000	-6.059265e+001
2520000000	-1.440083e+001	-9.332360e+001	1.302697e+001	-1.792555e+002	-2.151392e+001	1.561740e+002	-5.911043e+000	-6.161627e+001
2524000000	-1.409533e+001	-9.520389e+001	1.298900e+001	1.797533e+002	-2.149749e+001	1.554122e+002	-5.856739e+000	-6.263530e+001
2528000000	-1.380009e+001	-9.693961e+001	1.295249e+001	1.787757e+002	-2.151382e+001	1.546631e+002	-5.798938e+000	-6.365016e+001
2532000000	-1.351238e+001	-9.874971e+001	1.291380e+001	1.777858e+002	-2.150162e+001	1.540722e+002	-5.744232e+000	-6.466493e+001
2536000000	-1.322029e+001	-1.003683e+002	1.287436e+001	1.768119e+002	-2.150111e+001	1.533556e+002	-5.693385e+000	-6.568149e+001
2540000000	-1.293860e+001	-1.019353e+002	1.283602e+001	1.758361e+002	-2.151955e+001	1.526416e+002	-5.642175e+000	-6.666905e+001
2544000000	-1.266496e+001	-1.034122e+002	1.279569e+001	1.748648e+002	-2.151415e+001	1.519874e+002	-5.586884e+000	-6.767990e+001
2548000000	-1.238386e+001	-1.049336e+002	1.275550e+001	1.738697e+002	-2.150699e+001	1.512787e+002	-5.534455e+000	-6.867267e+001
2552000000	-1.211828e+001	-1.063311e+002	1.271388e+001	1.729007e+002	-2.151546e+001	1.506443e+002	-5.485088e+000	-6.966447e+001
2556000000	-1.185143e+001	-1.076876e+002	1.267379e+001	1.719238e+002	-2.150998e+001	1.499824e+002	-5.435015e+000	-7.063261e+001
2560000000	-1.159171e+001	-1.090244e+002	1.262999e+001	1.709562e+002	-2.150368e+001	1.491797e+002	-5.386160e+000	-7.158096e+001
2564000000	-1.134951e+001	-1.102368e+002	1.258748e+001	1.699823e+002	-2.151098e+001	1.485193e+002	-5.333602e+000	-7.254314e+001
2568000000	-1.109518e+001	-1.114432e+002	1.254620e+001	1.690205e+002	-2.150561e+001	1.478203e+002	-5.286917e+000	-7.350088e+001
2572000000	-1.085078e+001	-1.126663e+002	1.250332e+001	1.680392e+002	-2.150914e+001	1.471085e+002	-5.241840e+000	-7.442286e+001
2576000000	-1.060965e+001	-1.138054e+002	1.245888e+001	1.670628e+002	-2.151291e+001	1.464342e+002	-5.192965e+000	-7.535490e+001
2580000000	-1.037232e+001	-1.149596e+002	1.241505e+001	1.660787e+002	-2.151130e+001	1.457093e+002	-5.149278e+000	-7.627201e+001
2584000000	-1.014350e+001	-1.160530e+002	1.237061e+001	1.651053e+002	-2.149889e+001	1.450757e+002	-5.104938e+000	-7.718402e+001
2588000000	-9.912235e+000	-1.171807e+002	1.232423e+001	1.641310e+002	-2.151797e+001	1.443310e+002	-5.062214e+000	-7.809413e+001
2592000000	-9.691662e+000	-1.182567e+002	1.227641e+001	1.631484e+002	-2.150254e+001	1.436379e+002	-5.018142e+000	-7.895129e+001
2596000000	-9.469832e+000	-1.193603e+002	1.222887e+001	1.621734e+002	-2.150969e+001	1.429730e+002	-4.977458e+000	-7.984196e+001
2600000000	-9.255601e+000	-1.204719e+002	1.218205e+001	1.611913e+002	-2.151001e+001	1.422283e+002	-4.936444e+000	-8.072459e+001
2604000000	-9.033890e+000	-1.215416e+002	1.213573e+001	1.602290e+002	-2.150659e+001	1.415478e+002	-4.893746e+000	-8.160228e+001
2608000000	-8.829081e+000	-1.226397e+002	1.208766e+001	1.592338e+002	-2.150763e+001	1.408156e+002	-4.849373e+000	-8.245420e+001
