!Agilent Technologies,E5071C,MY46107443,A.09.30
!Date: Tue Apr 26 16:00:42 2016
!Data & Calibration Information:
!Freq	S11:SOLT2(ON)	S21:SOLT2(ON)	S12:SOLT2(ON)	S22:SOLT2(ON)
# Hz S dB R 50
1000000	-3.701507e+000	-1.495027e+002	-9.322033e+000	-1.057972e+002	-1.598368e+001	1.913412e+001	-1.309686e+000	-1.563702e+002
30995000	-1.467428e+001	9.292646e+001	9.297495e+000	-1.651834e+002	-3.105906e+001	-1.138043e+002	-1.089916e+001	4.370762e+001
60990000	-2.464262e+001	5.087302e+001	9.817779e+000	1.791782e+002	-4.037674e+001	-1.689693e+002	-1.199363e+001	8.174120e+000
90985000	-3.012428e+001	-3.606670e+001	9.873245e+000	1.698171e+002	-4.611063e+001	1.203687e+002	-1.204507e+001	-1.268538e+001
120980000	-2.484869e+001	-7.923937e+001	9.892396e+000	1.618420e+002	-4.537281e+001	7.983234e+001	-1.182845e+001	-2.851322e+001
150975000	-2.122715e+001	-9.292648e+001	9.883657e+000	1.546504e+002	-4.380531e+001	6.723306e+001	-1.151674e+001	-4.188436e+001
180970000	-1.877850e+001	-1.009090e+002	9.822284e+000	1.478282e+002	-4.232558e+001	6.176883e+001	-1.114644e+001	-5.363212e+001
210965000	-1.684526e+001	-1.077113e+002	9.769563e+000	1.415305e+002	-4.082558e+001	5.793544e+001	-1.073422e+001	-6.455135e+001
240960000	-1.538272e+001	-1.140993e+002	9.716916e+000	1.353441e+002	-3.945452e+001	5.313618e+001	-1.033619e+001	-7.450260e+001
270955000	-1.417475e+001	-1.199161e+002	9.683114e+000	1.289117e+002	-3.832867e+001	4.790993e+001	-9.939859e+000	-8.375124e+001
300950000	-1.314677e+001	-1.245391e+002	9.559158e+000	1.225979e+002	-3.791861e+001	4.700627e+001	-9.528924e+000	-9.241210e+001
330945000	-1.210735e+001	-1.296748e+002	9.453073e+000	1.167763e+002	-3.630237e+001	4.534455e+001	-9.128884e+000	-1.009834e+002
360940000	-1.129730e+001	-1.351521e+002	9.385267e+000	1.108574e+002	-3.519445e+001	3.852229e+001	-8.769496e+000	-1.088162e+002
390935000	-1.060828e+001	-1.403074e+002	9.301638e+000	1.044699e+002	-3.453985e+001	3.198152e+001	-8.416637e+000	-1.163001e+002
420930000	-1.003725e+001	-1.449560e+002	9.132581e+000	9.843938e+001	-3.456082e+001	2.732295e+001	-8.075591e+000	-1.234265e+002
450925000	-9.234778e+000	-1.494020e+002	8.951036e+000	9.305392e+001	-3.295279e+001	3.164215e+001	-7.699094e+000	-1.309900e+002
480920000	-8.729929e+000	-1.551688e+002	8.924684e+000	8.709546e+001	-3.192000e+001	2.154112e+001	-7.443298e+000	-1.379108e+002
510915000	-8.305775e+000	-1.602221e+002	8.689798e+000	8.079663e+001	-3.149824e+001	1.429783e+001	-7.168782e+000	-1.444888e+002
540910000	-7.914079e+000	-1.649726e+002	8.458938e+000	7.570449e+001	-3.130841e+001	9.220598e+000	-6.902357e+000	-1.509288e+002
570905000	-7.529711e+000	-1.690958e+002	8.442746e+000	7.019281e+001	-3.135715e+001	7.736266e+000	-6.592552e+000	-1.571555e+002
600900000	-6.954078e+000	-1.750123e+002	8.165702e+000	6.354075e+001	-2.910297e+001	5.942457e+000	-6.391795e+000	-1.648970e+002
630895000	-6.799082e+000	1.796534e+002	7.872656e+000	5.843750e+001	-2.901751e+001	-5.445998e+000	-6.286374e+000	-1.705995e+002
660890000	-6.572763e+000	1.752323e+002	7.698213e+000	5.387693e+001	-2.900892e+001	-9.644998e+000	-6.066752e+000	-1.764573e+002
690885000	-6.222025e+000	1.705282e+002	7.599599e+000	4.762178e+001	-2.823660e+001	-1.072179e+001	-5.814568e+000	1.766665e+002
720880000	-6.066772e+000	1.645724e+002	7.149100e+000	4.220759e+001	-2.719797e+001	-2.061707e+001	-5.845016e+000	1.700197e+002
750875000	-6.020372e+000	1.595792e+002	6.832273e+000	3.876912e+001	-2.713580e+001	-2.851691e+001	-5.794470e+000	1.645829e+002
780870000	-5.935990e+000	1.547073e+002	6.793885e+000	3.400114e+001	-2.689298e+001	-3.321257e+001	-5.656469e+000	1.585600e+002
810865000	-5.898844e+000	1.492714e+002	6.335560e+000	2.837894e+001	-2.610361e+001	-3.935110e+001	-5.656445e+000	1.515217e+002
840860000	-6.126311e+000	1.438393e+002	5.892921e+000	2.610385e+001	-2.589846e+001	-4.941546e+001	-5.798790e+000	1.458483e+002
870855000	-6.547815e+000	1.394034e+002	5.831710e+000	2.448265e+001	-2.587808e+001	-5.663699e+001	-5.851285e+000	1.403017e+002
900850000	-7.181529e+000	1.368190e+002	5.969567e+000	2.147383e+001	-2.582707e+001	-6.615528e+001	-6.013709e+000	1.349786e+002
930845000	-7.663693e+000	1.379343e+002	6.084719e+000	1.747032e+001	-2.647960e+001	-7.426454e+001	-6.089478e+000	1.299767e+002
960840000	-7.612582e+000	1.406606e+002	6.318632e+000	1.384087e+001	-2.734605e+001	-8.025226e+001	-6.205930e+000	1.263967e+002
990835000	-7.003578e+000	1.419861e+002	6.642133e+000	7.078649e+000	-2.805418e+001	-7.921380e+001	-5.856841e+000	1.209384e+002
1020830000	-6.331774e+000	1.401161e+002	6.527926e+000	-1.046213e+000	-2.792259e+001	-7.904105e+001	-5.754245e+000	1.133876e+002
1050825000	-5.794988e+000	1.366565e+002	6.026675e+000	-6.283906e+000	-2.764067e+001	-8.012788e+001	-6.061353e+000	1.049339e+002
1080820000	-5.434027e+000	1.324676e+002	5.887680e+000	-1.016761e+001	-2.722014e+001	-8.384469e+001	-6.549035e+000	9.898345e+001
1110815000	-5.147782e+000	1.284822e+002	5.693270e+000	-1.453879e+001	-2.699378e+001	-8.672989e+001	-7.148851e+000	9.244388e+001
1140810000	-4.992510e+000	1.247113e+002	5.570119e+000	-1.865649e+001	-2.661123e+001	-9.259300e+001	-7.864656e+000	8.971063e+001
1170805000	-4.795190e+000	1.212883e+002	5.488095e+000	-2.238353e+001	-2.680131e+001	-9.633375e+001	-8.270034e+000	8.815791e+001
1200800000	-4.667913e+000	1.176685e+002	5.566524e+000	-2.537619e+001	-2.653739e+001	-9.961831e+001	-8.155637e+000	8.759813e+001
1230795000	-4.539273e+000	1.146164e+002	5.892639e+000	-3.109116e+001	-2.639187e+001	-1.032337e+002	-7.627479e+000	8.296877e+001
1260790000	-4.346166e+000	1.115420e+002	5.788408e+000	-3.897311e+001	-2.630059e+001	-1.082379e+002	-7.300066e+000	7.535509e+001
1290785000	-4.108840e+000	1.082405e+002	5.400464e+000	-4.384020e+001	-2.646749e+001	-1.105908e+002	-7.281899e+000	6.568244e+001
1320780000	-3.909015e+000	1.045503e+002	5.388467e+000	-4.920263e+001	-2.603939e+001	-1.125881e+002	-7.555821e+000	5.554259e+001
1350775000	-3.733972e+000	1.009712e+002	4.962580e+000	-5.632695e+001	-2.590065e+001	-1.186206e+002	-7.877057e+000	4.456761e+001
1380770000	-3.538942e+000	9.739191e+001	4.277146e+000	-5.982677e+001	-2.619537e+001	-1.215638e+002	-8.463755e+000	3.129376e+001
1410765000	-3.322304e+000	9.357125e+001	3.943367e+000	-6.224109e+001	-2.619551e+001	-1.208101e+002	-9.565085e+000	1.575944e+001
1440760000	-3.107453e+000	8.944468e+001	3.518453e+000	-6.471883e+001	-2.565410e+001	-1.212308e+002	-1.129029e+001	-1.545668e+000
1470755000	-2.889204e+000	8.515363e+001	3.230191e+000	-6.417337e+001	-2.519661e+001	-1.231263e+002	-1.382169e+001	-2.245001e+001
1500750000	-2.674906e+000	8.025540e+001	3.699958e+000	-6.417639e+001	-2.452040e+001	-1.229847e+002	-1.808350e+001	-4.819827e+001
1530745000	-2.563351e+000	7.508040e+001	4.105664e+000	-6.753874e+001	-2.310595e+001	-1.247860e+002	-2.354645e+001	-8.355346e+001
1560740000	-2.533328e+000	6.988492e+001	4.468204e+000	-7.154571e+001	-2.184772e+001	-1.345195e+002	-2.568567e+001	-1.435723e+002
1590735000	-2.520114e+000	6.489809e+001	4.818709e+000	-7.655641e+001	-2.179351e+001	-1.425008e+002	-2.236349e+001	1.719286e+002
1620730000	-2.505942e+000	5.955556e+001	4.912125e+000	-8.223316e+001	-2.105482e+001	-1.450756e+002	-2.007053e+001	1.494125e+002
1650725000	-2.593786e+000	5.424607e+001	4.946565e+000	-8.708620e+001	-1.984921e+001	-1.548877e+002	-1.861546e+001	1.405219e+002
1680720000	-2.738594e+000	4.906717e+001	4.966008e+000	-9.185727e+001	-1.976814e+001	-1.665315e+002	-1.694948e+001	1.362403e+002
1710715000	-2.908446e+000	4.397206e+001	4.877126e+000	-9.658973e+001	-1.988811e+001	-1.729023e+002	-1.541433e+001	1.308579e+002
1740710000	-3.094235e+000	3.859160e+001	4.686786e+000	-9.969464e+001	-1.940124e+001	-1.777766e+002	-1.419092e+001	1.257294e+002
1770705000	-3.394420e+000	3.295493e+001	4.743438e+000	-1.011721e+002	-1.861236e+001	1.719492e+002	-1.291574e+001	1.219977e+002
1800700000	-3.889361e+000	2.788500e+001	5.053349e+000	-1.036889e+002	-1.886720e+001	1.594112e+002	-1.140061e+001	1.156045e+002
1830695000	-4.390932e+000	2.427174e+001	5.206620e+000	-1.055761e+002	-1.945213e+001	1.534505e+002	-1.015912e+001	1.055264e+002
1860690000	-4.884180e+000	2.104273e+001	5.953979e+000	-1.052933e+002	-1.911879e+001	1.474276e+002	-9.470947e+000	9.482574e+001
1890685000	-5.427806e+000	1.835450e+001	7.159414e+000	-1.110271e+002	-1.940337e+001	1.364988e+002	-8.980399e+000	8.353307e+001
1920680000	-5.818529e+000	1.778441e+001	7.700340e+000	-1.185441e+002	-2.035984e+001	1.310456e+002	-8.848214e+000	7.092670e+001
1950675000	-5.817645e+000	1.651037e+001	8.370553e+000	-1.242239e+002	-2.060175e+001	1.307149e+002	-9.405374e+000	5.802783e+001
1980670000	-5.703747e+000	1.299279e+001	9.104484e+000	-1.338232e+002	-2.023211e+001	1.272939e+002	-1.047034e+001	4.712202e+001
2010665000	-5.786241e+000	8.080485e+000	9.217760e+000	-1.436342e+002	-2.012848e+001	1.225625e+002	-1.200263e+001	3.939207e+001
2040660000	-6.002343e+000	2.283224e+000	9.216731e+000	-1.507036e+002	-1.979857e+001	1.204505e+002	-1.378992e+001	3.596866e+001
2070655000	-6.419251e+000	-4.194114e+000	9.434205e+000	-1.569498e+002	-1.873610e+001	1.154908e+002	-1.551644e+001	3.811543e+001
2100650000	-7.136820e+000	-1.181668e+001	9.655646e+000	-1.644163e+002	-1.811088e+001	1.043263e+002	-1.642084e+001	4.405087e+001
2130645000	-8.212569e+000	-1.911727e+001	9.632737e+000	-1.708104e+002	-1.811016e+001	9.660061e+001	-1.647310e+001	5.135469e+001
2160640000	-9.858905e+000	-2.648255e+001	9.777992e+000	-1.735277e+002	-1.737706e+001	8.954005e+001	-1.517882e+001	5.324058e+001
2190635000	-1.255782e+001	-3.269542e+001	1.083731e+001	-1.768666e+002	-1.680262e+001	7.657180e+001	-1.344129e+001	4.043577e+001
2220630000	-1.722017e+001	-2.548818e+001	1.184276e+001	1.747230e+002	-1.684189e+001	6.344084e+001	-1.295249e+001	1.338969e+001
2250625000	-1.891637e+001	1.350299e+001	1.292694e+001	1.672956e+002	-1.717627e+001	5.086267e+001	-1.358005e+001	-2.468391e+001
2280620000	-1.537668e+001	3.644861e+001	1.431465e+001	1.527997e+002	-1.768523e+001	3.861872e+001	-1.231360e+001	-7.661265e+001
2310615000	-1.237892e+001	3.651926e+001	1.471653e+001	1.343155e+002	-1.863485e+001	2.712719e+001	-9.332934e+000	-1.321120e+002
2340610000	-1.164474e+001	3.081350e+001	1.486629e+001	1.176424e+002	-1.977431e+001	1.970166e+001	-6.839433e+000	-1.734129e+002
2370605000	-1.124257e+001	3.518642e+001	1.467170e+001	9.564415e+001	-2.062245e+001	1.447281e+001	-5.110968e+000	1.582289e+002
2400600000	-1.051842e+001	3.962110e+001	1.319740e+001	7.804384e+001	-2.103755e+001	1.073054e+001	-3.934663e+000	1.361892e+002
2430595000	-9.374302e+000	4.398143e+001	1.243774e+001	6.837014e+001	-2.091872e+001	3.828480e+000	-3.215182e+000	1.188447e+002
2460590000	-7.714205e+000	4.370322e+001	1.185962e+001	5.213401e+001	-2.136345e+001	-7.546119e+000	-2.774564e+000	1.046422e+002
2490585000	-6.403083e+000	3.938270e+001	1.031588e+001	3.925265e+001	-2.239665e+001	-1.489596e+001	-2.397633e+000	9.279762e+001
2520580000	-5.516437e+000	3.464068e+001	9.218222e+000	3.028873e+001	-2.277225e+001	-1.979182e+001	-2.133184e+000	8.217057e+001
2550575000	-4.703591e+000	2.995366e+001	8.325300e+000	2.087488e+001	-2.294629e+001	-2.923069e+001	-1.978134e+000	7.264690e+001
2580570000	-4.065676e+000	2.466272e+001	7.582543e+000	8.252632e+000	-2.396343e+001	-4.088828e+001	-1.901845e+000	6.414028e+001
2610565000	-3.526643e+000	1.932717e+001	5.608265e+000	-4.064613e+000	-2.551472e+001	-4.584549e+001	-1.833399e+000	5.643958e+001
2640560000	-3.094326e+000	1.433561e+001	4.261257e+000	-4.592362e+000	-2.563441e+001	-4.705743e+001	-1.799015e+000	4.944557e+001
2670555000	-2.677283e+000	9.268005e+000	4.523495e+000	-1.739585e+001	-2.583680e+001	-6.185202e+001	-1.772576e+000	4.278508e+001
2700550000	-2.270399e+000	4.228025e+000	1.976326e+000	-3.282723e+001	-2.814652e+001	-7.063821e+001	-1.766136e+000	3.663033e+001
2730545000	-1.951507e+000	-1.004195e+000	1.681280e-001	-2.952835e+001	-2.897026e+001	-6.672216e+001	-1.794288e+000	3.082612e+001
2760540000	-1.682081e+000	-6.180183e+000	7.012199e-001	-3.973878e+001	-2.859288e+001	-7.798974e+001	-1.799513e+000	2.544551e+001
2790535000	-1.431603e+000	-1.126259e+001	-1.642834e+000	-5.633697e+001	-3.053970e+001	-8.957460e+001	-1.793935e+000	2.030572e+001
2820530000	-1.211697e+000	-1.651226e+001	-4.006732e+000	-5.614086e+001	-3.204539e+001	-8.965013e+001	-1.800533e+000	1.525609e+001
2850525000	-1.034782e+000	-2.168933e+001	-4.271084e+000	-5.929275e+001	-3.232890e+001	-9.459555e+001	-1.806909e+000	1.054386e+001
2880520000	-8.906666e-001	-2.670235e+001	-5.426442e+000	-7.358597e+001	-3.357950e+001	-1.052090e+002	-1.793779e+000	5.964514e+000
2910515000	-7.709823e-001	-3.170872e+001	-8.056765e+000	-8.273277e+001	-3.571052e+001	-1.113234e+002	-1.778498e+000	1.505779e+000
2940510000	-6.741633e-001	-3.665784e+001	-9.958059e+000	-8.241219e+001	-3.714020e+001	-1.114509e+002	-1.753537e+000	-2.734795e+000
2970505000	-5.853014e-001	-4.155430e+001	-1.052487e+001	-9.272538e+001	-3.782127e+001	-1.209677e+002	-1.718980e+000	-6.896621e+000
3000500000	-5.150791e-001	-4.631376e+001	-1.380495e+001	-1.094366e+002	-4.116749e+001	-1.300444e+002	-1.668252e+000	-1.101835e+001
3030495000	-4.623323e-001	-5.094602e+001	-1.772633e+001	-1.085104e+002	-4.431322e+001	-1.218894e+002	-1.607387e+000	-1.515071e+001
3060490000	-4.245863e-001	-5.558898e+001	-1.977117e+001	-1.131020e+002	-4.548778e+001	-1.217005e+002	-1.533481e+000	-1.924838e+001
3090485000	-3.987467e-001	-6.028113e+001	-2.539144e+001	-1.286634e+002	-4.950387e+001	-1.222791e+002	-1.449774e+000	-2.335663e+001
3120480000	-3.847259e-001	-6.494076e+001	-3.686187e+001	-1.236832e+002	-5.322734e+001	-8.460510e+001	-1.367854e+000	-2.747680e+001
3150475000	-3.794083e-001	-6.949474e+001	-3.631534e+001	2.955336e+001	-5.088718e+001	-5.549407e+001	-1.280407e+000	-3.166381e+001
3180470000	-3.842967e-001	-7.389393e+001	-2.768241e+001	2.623152e+001	-4.853621e+001	-5.029264e+001	-1.188457e+000	-3.586044e+001
3210465000	-3.984744e-001	-7.822208e+001	-2.460837e+001	1.780874e+001	-4.772257e+001	-5.151850e+001	-1.104402e+000	-4.008460e+001
3240460000	-4.198597e-001	-8.256795e+001	-2.350918e+001	1.500171e+001	-4.728181e+001	-4.072926e+001	-1.028496e+000	-4.437888e+001
3270455000	-4.424739e-001	-8.686676e+001	-2.147204e+001	1.740078e+001	-4.434376e+001	-4.119688e+001	-9.592785e-001	-4.875538e+001
3300450000	-4.656601e-001	-9.104970e+001	-1.964532e+001	2.596497e+000	-4.360218e+001	-5.717198e+001	-8.949102e-001	-5.311259e+001
3330445000	-4.930924e-001	-9.515950e+001	-2.088428e+001	-6.154643e+000	-4.493067e+001	-5.921763e+001	-8.294094e-001	-5.739223e+001
3360440000	-5.265174e-001	-9.925288e+001	-2.040007e+001	1.145147e+000	-4.372746e+001	-5.361104e+001	-7.672799e-001	-6.167320e+001
3390435000	-5.651312e-001	-1.033256e+002	-1.860470e+001	-1.069427e+001	-4.258617e+001	-6.710879e+001	-7.151611e-001	-6.600083e+001
3420430000	-5.999086e-001	-1.073948e+002	-1.987498e+001	-2.405605e+001	-4.370322e+001	-7.638336e+001	-6.761063e-001	-7.031417e+001
3450425000	-6.310068e-001	-1.114046e+002	-2.089941e+001	-2.209393e+001	-4.434941e+001	-7.578793e+001	-6.337204e-001	-7.463997e+001
3480420000	-6.622929e-001	-1.154045e+002	-2.029637e+001	-2.310108e+001	-4.383915e+001	-7.889814e+001	-5.935654e-001	-7.893500e+001
3510415000	-6.925836e-001	-1.193677e+002	-2.013735e+001	-3.373787e+001	-4.383646e+001	-8.846072e+001	-5.620930e-001	-8.320710e+001
3540410000	-7.176495e-001	-1.232209e+002	-2.171233e+001	-4.254642e+001	-4.524611e+001	-9.392966e+001	-5.360607e-001	-8.748930e+001
3570405000	-7.458515e-001	-1.270279e+002	-2.282786e+001	-3.791719e+001	-4.585001e+001	-9.305698e+001	-5.105441e-001	-9.175684e+001
3600400000	-7.774625e-001	-1.308547e+002	-2.193851e+001	-4.292872e+001	-4.523602e+001	-1.017843e+002	-4.873370e-001	-9.595637e+001
3630395000	-8.139623e-001	-1.347631e+002	-2.356802e+001	-5.813231e+001	-4.710948e+001	-1.133247e+002	-4.694663e-001	-1.001272e+002
3660390000	-8.452371e-001	-1.386396e+002	-2.596560e+001	-5.589477e+001	-4.845295e+001	-1.135259e+002	-4.576205e-001	-1.042991e+002
3690385000	-8.720512e-001	-1.424170e+002	-2.643567e+001	-5.602120e+001	-4.879188e+001	-1.184138e+002	-4.417102e-001	-1.084879e+002
3720380000	-8.906380e-001	-1.461242e+002	-2.814591e+001	-6.521068e+001	-5.009526e+001	-1.352813e+002	-4.262958e-001	-1.126376e+002
3750375000	-9.087910e-001	-1.498880e+002	-3.136111e+001	-6.998125e+001	-5.283720e+001	-1.497496e+002	-4.173453e-001	-1.167764e+002
3780370000	-9.190776e-001	-1.536734e+002	-3.624813e+001	-6.727897e+001	-5.560099e+001	-1.593676e+002	-4.139114e-001	-1.209293e+002
3810365000	-9.241441e-001	-1.574121e+002	-4.316137e+001	-4.123296e+001	-5.731571e+001	1.743965e+002	-4.093898e-001	-1.250575e+002
3840360000	-9.277402e-001	-1.610918e+002	-4.205700e+001	5.297961e+001	-5.746314e+001	1.133568e+002	-4.037732e-001	-1.291523e+002
3870355000	-9.404155e-001	-1.648455e+002	-3.610821e+001	6.339983e+001	-5.705860e+001	8.748574e+001	-4.043296e-001	-1.332293e+002
3900350000	-9.542210e-001	-1.687369e+002	-3.209082e+001	8.322237e+001	-5.300479e+001	8.140457e+001	-4.099359e-001	-1.372984e+002
3930345000	-9.591769e-001	-1.726585e+002	-2.617115e+001	7.725470e+001	-4.897763e+001	5.176217e+001	-4.142287e-001	-1.413334e+002
3960340000	-9.593144e-001	-1.765548e+002	-2.510419e+001	5.773838e+001	-4.886267e+001	3.487295e+001	-4.183426e-001	-1.453696e+002
3990335000	-9.604716e-001	1.795433e+002	-2.526838e+001	6.475264e+001	-4.764621e+001	3.957235e+001	-4.333983e-001	-1.494243e+002
4020330000	-9.765427e-001	1.756159e+002	-2.182155e+001	7.269929e+001	-4.456755e+001	3.607177e+001	-4.519671e-001	-1.534621e+002
4050325000	-1.000092e+000	1.716628e+002	-1.873567e+001	5.586485e+001	-4.289931e+001	1.785657e+001	-4.674685e-001	-1.574580e+002
4080320000	-1.034189e+000	1.677684e+002	-1.962829e+001	4.171333e+001	-4.337254e+001	1.299927e+001	-4.851909e-001	-1.614238e+002
4110315000	-1.066358e+000	1.638968e+002	-1.957119e+001	5.466323e+001	-4.192229e+001	2.030594e+001	-5.130009e-001	-1.653605e+002
4140310000	-1.099769e+000	1.600225e+002	-1.535047e+001	5.210993e+001	-3.898825e+001	9.722856e+000	-5.486009e-001	-1.692511e+002
4170305000	-1.131400e+000	1.561622e+002	-1.503647e+001	2.606541e+001	-3.929890e+001	-4.442671e+000	-5.843753e-001	-1.731184e+002
4200300000	-1.149252e+000	1.523512e+002	-1.680307e+001	3.142235e+001	-3.873927e+001	5.540267e-001	-6.222212e-001	-1.769895e+002
4230295000	-1.155964e+000	1.485266e+002	-1.373583e+001	3.718502e+001	-3.625347e+001	-7.597739e+000	-6.611386e-001	1.791217e+002
4260290000	-1.161940e+000	1.446217e+002	-1.245422e+001	1.656558e+001	-3.596940e+001	-2.171734e+001	-7.025061e-001	1.752522e+002
4290285000	-1.164803e+000	1.406251e+002	-1.367472e+001	1.369075e+001	-3.561058e+001	-2.358970e+001	-7.491432e-001	1.714237e+002
4320280000	-1.161757e+000	1.365820e+002	-1.228813e+001	1.685096e+001	-3.415714e+001	-3.147416e+001	-7.995151e-001	1.676191e+002
4350275000	-1.155231e+000	1.324454e+002	-1.102106e+001	7.209342e+000	-3.358438e+001	-4.281917e+001	-8.610324e-001	1.637629e+002
4380270000	-1.150402e+000	1.281499e+002	-1.098301e+001	8.406796e-002	-3.334499e+001	-5.177496e+001	-9.339933e-001	1.599221e+002
4410265000	-1.142208e+000	1.235837e+002	-1.071849e+001	-1.067628e+000	-3.297537e+001	-5.785507e+001	-1.016176e+000	1.561310e+002
4440260000	-1.133553e+000	1.187455e+002	-9.458415e+000	-3.073031e+000	-3.153405e+001	-6.711660e+001	-1.117267e+000	1.523682e+002
4470255000	-1.130450e+000	1.136310e+002	-8.620116e+000	-1.276142e+001	-3.137274e+001	-8.787208e+001	-1.248429e+000	1.486455e+002
4500250000	-1.161587e+000	1.081202e+002	-8.745354e+000	-1.531152e+001	-3.252639e+001	-9.718999e+001	-1.407100e+000	1.450887e+002
4530245000	-1.257838e+000	1.021062e+002	-7.096352e+000	-1.540135e+001	-3.165840e+001	-1.079260e+002	-1.573651e+000	1.418308e+002
4560240000	-1.454832e+000	9.572277e+001	-5.752921e+000	-2.807721e+001	-3.228242e+001	-1.350740e+002	-1.727192e+000	1.389180e+002
