!Agilent Technologies,E5071C,MY46108981,A.11.08
!Date: Thu May 12 17:18:50 2016
!Data & Calibration Information:
!Freq	S11:SOLT2(ON)	S21:SOLT2(ON)	S12:SOLT2(ON)	S22:SOLT2(ON)
!PortZ  Port1:50+j0    Port2:50+j0
!Above PortZ is port z conversion or system Z0 setting when saving the data.
!When reading, reference impedance value at option line is always used.
# Hz S dB R 50
500000000	-8.181365e+000	-1.610739e+002	1.705298e+001	9.143887e+001	-3.283517e+001	1.894798e+001	-1.112589e+001	-1.424366e+002
511000000	-8.109244e+000	-1.617574e+002	1.704268e+001	8.945191e+001	-3.311043e+001	1.864497e+001	-1.095492e+001	-1.424452e+002
522000000	-8.043954e+000	-1.624522e+002	1.697833e+001	8.795264e+001	-3.322357e+001	1.855424e+001	-1.096922e+001	-1.432078e+002
533000000	-7.923763e+000	-1.627776e+002	1.698717e+001	8.597972e+001	-3.327602e+001	1.964486e+001	-1.075293e+001	-1.426766e+002
544000000	-7.676253e+000	-1.628935e+002	1.696849e+001	8.324289e+001	-3.305460e+001	2.213052e+001	-1.014253e+001	-1.426589e+002
555000000	-7.297195e+000	-1.661019e+002	1.660084e+001	8.071228e+001	-3.178344e+001	1.939123e+001	-9.633235e+000	-1.496316e+002
566000000	-7.579320e+000	-1.668022e+002	1.646681e+001	8.074644e+001	-3.254621e+001	1.396059e+001	-1.026461e+001	-1.528047e+002
577000000	-7.445605e+000	-1.677639e+002	1.655717e+001	7.923125e+001	-3.245389e+001	1.415078e+001	-1.041401e+001	-1.508905e+002
588000000	-7.342719e+000	-1.681172e+002	1.655304e+001	7.708539e+001	-3.255107e+001	1.432402e+001	-1.017689e+001	-1.502212e+002
599000000	-7.150989e+000	-1.686946e+002	1.647840e+001	7.477214e+001	-3.243904e+001	1.520531e+001	-9.829081e+000	-1.510226e+002
610000000	-6.899646e+000	-1.701901e+002	1.631945e+001	7.254425e+001	-3.195692e+001	1.608507e+001	-9.493209e+000	-1.531630e+002
621000000	-6.825935e+000	-1.721571e+002	1.617553e+001	7.094119e+001	-3.163942e+001	1.387016e+001	-9.379049e+000	-1.555108e+002
632000000	-6.818511e+000	-1.730676e+002	1.611446e+001	6.917506e+001	-3.160260e+001	1.361773e+001	-9.294368e+000	-1.562102e+002
643000000	-6.532041e+000	-1.743650e+002	1.585125e+001	6.652181e+001	-3.085277e+001	1.380088e+001	-8.705458e+000	-1.601312e+002
654000000	-6.646107e+000	-1.774022e+002	1.560570e+001	6.648638e+001	-3.048035e+001	6.887241e+000	-9.134999e+000	-1.652331e+002
665000000	-6.669133e+000	-1.780973e+002	1.563095e+001	6.599250e+001	-3.061254e+001	4.836231e+000	-9.644742e+000	-1.653822e+002
676000000	-6.693879e+000	-1.790800e+002	1.565903e+001	6.426496e+001	-3.068821e+001	2.568896e+000	-9.656070e+000	-1.646259e+002
687000000	-6.735066e+000	-1.799377e+002	1.561545e+001	6.227693e+001	-3.087378e+001	3.157099e-001	-9.536132e+000	-1.648931e+002
698000000	-6.717265e+000	-1.797639e+002	1.553773e+001	6.033824e+001	-3.099512e+001	5.299665e-001	-9.413208e+000	-1.650253e+002
709000000	-6.553885e+000	-1.798473e+002	1.532970e+001	5.822280e+001	-3.109100e+001	9.626638e-001	-9.101538e+000	-1.675071e+002
720000000	-6.376978e+000	1.785175e+002	1.526402e+001	5.727840e+001	-3.063787e+001	1.584019e+000	-9.261266e+000	-1.682239e+002
731000000	-6.461968e+000	1.766422e+002	1.523387e+001	5.617508e+001	-3.038445e+001	-3.056040e+000	-9.392403e+000	-1.693949e+002
742000000	-6.445844e+000	1.768117e+002	1.515344e+001	5.443173e+001	-3.072367e+001	-3.901969e+000	-9.330122e+000	-1.701657e+002
753000000	-6.364086e+000	1.755130e+002	1.512889e+001	5.243846e+001	-3.046952e+001	-4.815770e+000	-9.217768e+000	-1.698449e+002
764000000	-6.371643e+000	1.748471e+002	1.501431e+001	5.030569e+001	-3.047940e+001	-6.765475e+000	-8.984543e+000	-1.704217e+002
775000000	-6.360359e+000	1.748435e+002	1.482043e+001	4.851538e+001	-3.069666e+001	-8.735413e+000	-8.738108e+000	-1.722343e+002
786000000	-6.115208e+000	1.750667e+002	1.467816e+001	4.763404e+001	-3.105968e+001	-7.431079e+000	-8.759875e+000	-1.748173e+002
797000000	-5.943913e+000	1.732676e+002	1.464885e+001	4.587542e+001	-3.074727e+001	-5.760445e+000	-8.789012e+000	-1.754317e+002
808000000	-5.938336e+000	1.723126e+002	1.450193e+001	4.427599e+001	-3.068230e+001	-7.083316e+000	-8.738022e+000	-1.772101e+002
819000000	-5.781351e+000	1.717487e+002	1.443275e+001	4.303787e+001	-3.052478e+001	-6.022032e+000	-8.848762e+000	-1.779733e+002
830000000	-5.667101e+000	1.703211e+002	1.440700e+001	4.132197e+001	-3.022057e+001	-6.785635e+000	-8.850266e+000	-1.777841e+002
841000000	-5.631246e+000	1.691773e+002	1.433037e+001	3.925170e+001	-3.014906e+001	-8.226138e+000	-8.678923e+000	-1.779117e+002
852000000	-5.570974e+000	1.686055e+002	1.420829e+001	3.712762e+001	-3.022842e+001	-8.736501e+000	-8.469761e+000	-1.784999e+002
863000000	-5.406052e+000	1.679072e+002	1.404004e+001	3.521873e+001	-3.010238e+001	-7.957875e+000	-8.281729e+000	-1.796063e+002
874000000	-5.269241e+000	1.667065e+002	1.390423e+001	3.326965e+001	-2.994059e+001	-7.752698e+000	-8.068758e+000	1.794582e+002
885000000	-5.103676e+000	1.655865e+002	1.369155e+001	3.100141e+001	-2.980508e+001	-6.671042e+000	-7.755243e+000	1.779806e+002
896000000	-4.944562e+000	1.636819e+002	1.343130e+001	2.961104e+001	-2.932645e+001	-5.694257e+000	-7.612053e+000	1.753902e+002
907000000	-4.811871e+000	1.619528e+002	1.316825e+001	2.757181e+001	-2.870507e+001	-5.548628e+000	-7.352235e+000	1.732096e+002
918000000	-4.819627e+000	1.590755e+002	1.278728e+001	2.692242e+001	-2.791054e+001	-9.169923e+000	-7.243331e+000	1.689687e+002
929000000	-4.998074e+000	1.589470e+002	1.284010e+001	2.600830e+001	-2.839042e+001	-1.378976e+001	-7.556607e+000	1.698208e+002
940000000	-4.758933e+000	1.581680e+002	1.248489e+001	2.319678e+001	-2.831105e+001	-1.098323e+001	-6.922876e+000	1.680167e+002
951000000	-4.539940e+000	1.555004e+002	1.187333e+001	2.282764e+001	-2.741814e+001	-1.048224e+001	-6.640554e+000	1.616470e+002
962000000	-4.719647e+000	1.520347e+002	1.170363e+001	2.583137e+001	-2.674718e+001	-1.745704e+001	-7.471972e+000	1.560551e+002
973000000	-4.902636e+000	1.519604e+002	1.192197e+001	2.381983e+001	-2.731693e+001	-2.048236e+001	-7.639478e+000	1.601084e+002
984000000	-4.760707e+000	1.499805e+002	1.134499e+001	2.269354e+001	-2.676377e+001	-1.958164e+001	-7.034471e+000	1.549714e+002
995000000	-5.224035e+000	1.484052e+002	1.156813e+001	2.551684e+001	-2.689489e+001	-2.956955e+001	-8.273554e+000	1.528492e+002
1006000000	-5.008447e+000	1.494742e+002	1.142658e+001	2.156368e+001	-2.772665e+001	-2.418676e+001	-7.391540e+000	1.556575e+002
1017000000	-4.859475e+000	1.472824e+002	1.095385e+001	2.176922e+001	-2.703447e+001	-2.224523e+001	-7.071273e+000	1.497746e+002
1028000000	-4.894785e+000	1.451525e+002	1.071985e+001	2.317211e+001	-2.651318e+001	-2.361827e+001	-7.209461e+000	1.444631e+002
1039000000	-5.025275e+000	1.432376e+002	1.070094e+001	2.473068e+001	-2.612372e+001	-2.672932e+001	-7.660379e+000	1.400737e+002
1050000000	-5.160211e+000	1.418166e+002	1.075738e+001	2.569512e+001	-2.588134e+001	-2.944347e+001	-8.133707e+000	1.367979e+002
1061000000	-5.290538e+000	1.404721e+002	1.088042e+001	2.627874e+001	-2.565263e+001	-3.201779e+001	-8.615266e+000	1.340183e+002
1072000000	-5.476133e+000	1.392019e+002	1.102664e+001	2.655783e+001	-2.548873e+001	-3.510210e+001	-9.219075e+000	1.316147e+002
1083000000	-5.685396e+000	1.388552e+002	1.123602e+001	2.673064e+001	-2.540710e+001	-3.819101e+001	-9.965095e+000	1.299968e+002
1094000000	-5.753512e+000	1.384913e+002	1.148563e+001	2.604943e+001	-2.543498e+001	-4.146102e+001	-1.072770e+001	1.298081e+002
1105000000	-5.840142e+000	1.377506e+002	1.168079e+001	2.484105e+001	-2.547249e+001	-4.309056e+001	-1.141553e+001	1.316227e+002
1116000000	-5.966553e+000	1.376891e+002	1.185579e+001	2.301044e+001	-2.560990e+001	-4.579790e+001	-1.185988e+001	1.358525e+002
1127000000	-5.980339e+000	1.375037e+002	1.186044e+001	2.092990e+001	-2.557102e+001	-4.681843e+001	-1.161251e+001	1.384723e+002
1138000000	-5.899303e+000	1.364802e+002	1.167333e+001	2.022979e+001	-2.542852e+001	-4.700879e+001	-1.124409e+001	1.346160e+002
1149000000	-5.967426e+000	1.347202e+002	1.176695e+001	2.052146e+001	-2.510215e+001	-4.948668e+001	-1.209206e+001	1.307876e+002
1160000000	-6.182897e+000	1.329749e+002	1.196867e+001	2.054251e+001	-2.489709e+001	-5.362136e+001	-1.332726e+001	1.306000e+002
1171000000	-6.478175e+000	1.321278e+002	1.226320e+001	1.982294e+001	-2.496145e+001	-5.791642e+001	-1.456732e+001	1.357320e+002
1182000000	-6.767266e+000	1.320510e+002	1.257028e+001	1.834295e+001	-2.522512e+001	-6.146973e+001	-1.517275e+001	1.453800e+002
1193000000	-7.024193e+000	1.326969e+002	1.286008e+001	1.606553e+001	-2.552772e+001	-6.442105e+001	-1.487547e+001	1.560681e+002
1204000000	-7.191935e+000	1.338815e+002	1.305913e+001	1.329690e+001	-2.588910e+001	-6.634008e+001	-1.386164e+001	1.625430e+002
1215000000	-7.279541e+000	1.355154e+002	1.318990e+001	1.028275e+001	-2.636471e+001	-6.754856e+001	-1.281278e+001	1.655963e+002
1226000000	-7.246565e+000	1.367846e+002	1.323137e+001	7.226284e+000	-2.667016e+001	-6.758211e+001	-1.185910e+001	1.655593e+002
1237000000	-7.148391e+000	1.377773e+002	1.323288e+001	4.432511e+000	-2.695744e+001	-6.703828e+001	-1.117827e+001	1.647665e+002
1248000000	-6.994834e+000	1.381087e+002	1.318396e+001	1.104991e+000	-2.705569e+001	-6.569730e+001	-1.031286e+001	1.629793e+002
1259000000	-6.913850e+000	1.381319e+002	1.297959e+001	-1.068022e+000	-2.701273e+001	-6.553130e+001	-1.001001e+001	1.579933e+002
1270000000	-6.808541e+000	1.382565e+002	1.296073e+001	-2.700407e+000	-2.703726e+001	-6.517442e+001	-9.989175e+000	1.566374e+002
1281000000	-6.685761e+000	1.380140e+002	1.292976e+001	-5.101741e+000	-2.695641e+001	-6.510241e+001	-9.688630e+000	1.552378e+002
1292000000	-6.555704e+000	1.378292e+002	1.285007e+001	-7.579401e+000	-2.692295e+001	-6.497816e+001	-9.363578e+000	1.531862e+002
1303000000	-6.419217e+000	1.373748e+002	1.269654e+001	-1.010241e+001	-2.681502e+001	-6.479972e+001	-9.036187e+000	1.504290e+002
1314000000	-6.321815e+000	1.364916e+002	1.254785e+001	-1.200625e+001	-2.658053e+001	-6.512861e+001	-8.954512e+000	1.474772e+002
1325000000	-6.282971e+000	1.360528e+002	1.239639e+001	-1.404914e+001	-2.650168e+001	-6.610564e+001	-8.871216e+000	1.451268e+002
1336000000	-6.227476e+000	1.355702e+002	1.224127e+001	-1.588277e+001	-2.639481e+001	-6.700106e+001	-8.832528e+000	1.432936e+002
1347000000	-6.173824e+000	1.355665e+002	1.209345e+001	-1.765004e+001	-2.644151e+001	-6.774118e+001	-8.770623e+000	1.416139e+002
1358000000	-6.040829e+000	1.349089e+002	1.195264e+001	-1.966179e+001	-2.633883e+001	-6.769724e+001	-8.582493e+000	1.400508e+002
1369000000	-5.969170e+000	1.344761e+002	1.174278e+001	-2.168577e+001	-2.630913e+001	-6.816894e+001	-8.343624e+000	1.373399e+002
1380000000	-5.822270e+000	1.338688e+002	1.147745e+001	-2.333450e+001	-2.634528e+001	-6.768868e+001	-8.197106e+000	1.335735e+002
1391000000	-5.703147e+000	1.331169e+002	1.118282e+001	-2.459923e+001	-2.613431e+001	-6.675679e+001	-8.110160e+000	1.290979e+002
1402000000	-5.526463e+000	1.321294e+002	1.089878e+001	-2.515867e+001	-2.599232e+001	-6.584106e+001	-8.262786e+000	1.245141e+002
1413000000	-5.466880e+000	1.304104e+002	1.073896e+001	-2.515767e+001	-2.539114e+001	-6.536418e+001	-8.602825e+000	1.205863e+002
1424000000	-5.447192e+000	1.293139e+002	1.061881e+001	-2.574432e+001	-2.497603e+001	-6.673884e+001	-8.845418e+000	1.177490e+002
1435000000	-5.454345e+000	1.283734e+002	1.062127e+001	-2.655221e+001	-2.470494e+001	-6.953929e+001	-9.254723e+000	1.166312e+002
1446000000	-5.310772e+000	1.270301e+002	1.037199e+001	-2.768104e+001	-2.458707e+001	-6.968424e+001	-9.142346e+000	1.133373e+002
1457000000	-5.388867e+000	1.247736e+002	1.035601e+001	-2.757460e+001	-2.399178e+001	-7.078397e+001	-9.707025e+000	1.102316e+002
1468000000	-5.514153e+000	1.244731e+002	1.034715e+001	-2.879059e+001	-2.383520e+001	-7.469115e+001	-1.001397e+001	1.095472e+002
1479000000	-5.495381e+000	1.238761e+002	1.026642e+001	-3.013774e+001	-2.375477e+001	-7.635662e+001	-1.012998e+001	1.082493e+002
1490000000	-5.459617e+000	1.234677e+002	1.011583e+001	-3.165385e+001	-2.379716e+001	-7.803199e+001	-1.009183e+001	1.061894e+002
1501000000	-5.318558e+000	1.224728e+002	9.878263e+000	-3.258493e+001	-2.379249e+001	-7.755440e+001	-1.004518e+001	1.024595e+002
1512000000	-5.277281e+000	1.203001e+002	9.664679e+000	-3.298215e+001	-2.330963e+001	-7.693327e+001	-1.010864e+001	9.741902e+001
1523000000	-5.318608e+000	1.189186e+002	9.510097e+000	-3.304269e+001	-2.305008e+001	-7.803415e+001	-1.051311e+001	9.280286e+001
1534000000	-5.416823e+000	1.167341e+002	9.331470e+000	-3.310011e+001	-2.245266e+001	-7.930277e+001	-1.070260e+001	8.758858e+001
1545000000	-5.569158e+000	1.153990e+002	9.297874e+000	-3.252538e+001	-2.210038e+001	-8.159666e+001	-1.138234e+001	8.225156e+001
1556000000	-5.717848e+000	1.144983e+002	9.297126e+000	-3.275295e+001	-2.178351e+001	-8.404529e+001	-1.195390e+001	7.876663e+001
1567000000	-5.842470e+000	1.135241e+002	9.305718e+000	-3.321101e+001	-2.137336e+001	-8.677376e+001	-1.241154e+001	7.485923e+001
1578000000	-5.987221e+000	1.126093e+002	9.206133e+000	-3.394073e+001	-2.118948e+001	-9.010916e+001	-1.277250e+001	7.018421e+001
1589000000	-6.072229e+000	1.123127e+002	9.141861e+000	-3.423728e+001	-2.101638e+001	-9.212116e+001	-1.323629e+001	6.540278e+001
1600000000	-6.144949e+000	1.116058e+002	8.997883e+000	-3.402448e+001	-2.076849e+001	-9.450364e+001	-1.337425e+001	5.781051e+001
1611000000	-6.145066e+000	1.104853e+002	8.937339e+000	-3.349724e+001	-2.060580e+001	-9.571785e+001	-1.377901e+001	4.956289e+001
1622000000	-6.224226e+000	1.093209e+002	8.826028e+000	-3.339291e+001	-2.035404e+001	-9.748124e+001	-1.386057e+001	4.297942e+001
1633000000	-6.359158e+000	1.070559e+002	8.750696e+000	-3.219263e+001	-1.977850e+001	-9.888200e+001	-1.355420e+001	3.252454e+001
1644000000	-6.533722e+000	1.060987e+002	8.781376e+000	-3.046447e+001	-1.952816e+001	-1.021791e+002	-1.323313e+001	1.885884e+001
1655000000	-6.722371e+000	1.039111e+002	8.895348e+000	-2.951308e+001	-1.907117e+001	-1.040203e+002	-1.314795e+001	7.648030e+000
1666000000	-7.104573e+000	1.025090e+002	8.994629e+000	-2.790319e+001	-1.851630e+001	-1.078516e+002	-1.222578e+001	-3.796229e+000
1677000000	-7.324678e+000	9.935402e+001	9.200180e+000	-2.515788e+001	-1.798096e+001	-1.095561e+002	-1.077812e+001	-1.590303e+001
1688000000	-7.876303e+000	9.599382e+001	9.713329e+000	-2.196079e+001	-1.724829e+001	-1.130759e+002	-8.934267e+000	-2.984410e+001
1699000000	-8.817542e+000	9.481311e+001	1.030962e+001	-2.156480e+001	-1.665548e+001	-1.190690e+002	-7.883859e+000	-4.302868e+001
1710000000	-1.009621e+001	9.341427e+001	1.107164e+001	-2.063101e+001	-1.594277e+001	-1.251071e+002	-6.252313e+000	-5.548199e+001
1721000000	-1.163931e+001	9.703594e+001	1.189284e+001	-2.123938e+001	-1.545767e+001	-1.328039e+002	-4.793855e+000	-6.797447e+001
1732000000	-1.271756e+001	1.031768e+002	1.264731e+001	-2.268926e+001	-1.522160e+001	-1.398171e+002	-3.544417e+000	-7.930688e+001
1743000000	-1.582590e+001	1.181578e+002	1.382517e+001	-2.516620e+001	-1.437324e+001	-1.486172e+002	-1.729643e+000	-9.192371e+001
1754000000	-1.496880e+001	1.430271e+002	1.462658e+001	-2.999674e+001	-1.433467e+001	-1.582368e+002	-6.675696e-001	-1.046829e+002
1765000000	-1.263864e+001	1.720732e+002	1.582322e+001	-3.672860e+001	-1.357107e+001	-1.685104e+002	1.087269e+000	-1.178019e+002
1776000000	-7.456820e+000	1.684724e+002	1.603205e+001	-5.002361e+001	-1.368839e+001	1.721500e+002	1.954264e+000	-1.388860e+002
1787000000	-5.939960e+000	1.545053e+002	1.530185e+001	-5.738599e+001	-1.532560e+001	1.587341e+002	1.389477e+000	-1.547474e+002
1798000000	-5.493647e+000	1.481124e+002	1.502539e+001	-6.124588e+001	-1.646885e+001	1.514819e+002	1.269574e+000	-1.645395e+002
1809000000	-4.919446e+000	1.431384e+002	1.471505e+001	-6.537930e+001	-1.766963e+001	1.419310e+002	1.043607e+000	-1.752495e+002
1820000000	-5.174839e+000	1.399692e+002	1.471025e+001	-6.593310e+001	-1.878248e+001	1.422767e+002	7.791556e-001	-1.787309e+002
1831000000	-4.014427e+000	1.364588e+002	1.434682e+001	-7.375672e+001	-1.954610e+001	1.259105e+002	9.705657e-001	1.670594e+002
1842000000	-3.812122e+000	1.322495e+002	1.406462e+001	-7.756952e+001	-2.096801e+001	1.180996e+002	8.105177e-001	1.583791e+002
1853000000	-3.686312e+000	1.283817e+002	1.358923e+001	-8.052138e+001	-2.252242e+001	1.101027e+002	3.646199e-001	1.498792e+002
1864000000	-3.731977e+000	1.245704e+002	1.303791e+001	-8.178052e+001	-2.504164e+001	1.041753e+002	-5.483422e-001	1.422599e+002
1875000000	-3.769678e+000	1.225387e+002	1.282125e+001	-8.314871e+001	-2.676274e+001	1.024864e+002	-1.061622e+000	1.378636e+002
1886000000	-3.707358e+000	1.201905e+002	1.253815e+001	-8.457134e+001	-2.851404e+001	9.730875e+001	-1.515178e+000	1.329154e+002
1897000000	-3.760679e+000	1.182674e+002	1.238510e+001	-8.543117e+001	-3.051175e+001	9.423458e+001	-1.953776e+000	1.289939e+002
1908000000	-3.654871e+000	1.161291e+002	1.211250e+001	-8.721233e+001	-3.282762e+001	8.439533e+001	-2.381054e+000	1.235408e+002
1919000000	-3.625805e+000	1.139128e+002	1.186206e+001	-8.808056e+001	-3.580673e+001	7.711861e+001	-2.898060e+000	1.193913e+002
1930000000	-3.606569e+000	1.112175e+002	1.161395e+001	-8.798553e+001	-4.017587e+001	5.296386e+001	-3.576020e+000	1.153807e+002
1941000000	-3.813473e+000	1.091405e+002	1.173270e+001	-8.801226e+001	-5.216442e+001	-1.010830e+001	-4.160842e+000	1.149569e+002
1952000000	-3.873015e+000	1.072891e+002	1.161867e+001	-8.869783e+001	-4.380859e+001	-7.573513e+001	-4.732557e+000	1.121473e+002
1963000000	-4.006036e+000	1.062128e+002	1.170102e+001	-9.001986e+001	-4.037731e+001	-1.010145e+002	-5.022688e+000	1.112954e+002
1974000000	-4.055851e+000	1.047901e+002	1.160782e+001	-9.100358e+001	-3.739898e+001	-1.029671e+002	-5.503856e+000	1.093069e+002
1985000000	-4.176905e+000	1.035867e+002	1.164878e+001	-9.199858e+001	-3.508453e+001	-1.094352e+002	-5.810156e+000	1.086116e+002
1996000000	-4.273359e+000	1.023325e+002	1.167174e+001	-9.287466e+001	-3.346750e+001	-1.136970e+002	-6.178825e+000	1.074714e+002
2007000000	-4.386582e+000	1.010752e+002	1.174277e+001	-9.374967e+001	-3.204976e+001	-1.173562e+002	-6.510179e+000	1.069169e+002
2018000000	-4.496192e+000	1.000809e+002	1.186975e+001	-9.519611e+001	-3.111125e+001	-1.213546e+002	-6.672905e+000	1.067457e+002
2029000000	-4.616264e+000	9.919681e+001	1.196243e+001	-9.695736e+001	-3.026253e+001	-1.257621e+002	-6.777972e+000	1.066440e+002
2040000000	-4.661069e+000	9.837923e+001	1.194210e+001	-9.911473e+001	-2.985062e+001	-1.278086e+002	-6.750620e+000	1.046380e+002
2051000000	-4.720453e+000	9.750560e+001	1.198630e+001	-1.004172e+002	-2.921472e+001	-1.300938e+002	-6.975463e+000	1.045740e+002
2062000000	-4.753284e+000	9.640780e+001	1.199988e+001	-1.021976e+002	-2.865168e+001	-1.312932e+002	-7.016877e+000	1.037009e+002
2073000000	-4.831959e+000	9.539273e+001	1.203668e+001	-1.039735e+002	-2.798828e+001	-1.334590e+002	-7.068145e+000	1.030364e+002
2084000000	-4.921666e+000	9.470348e+001	1.207884e+001	-1.056446e+002	-2.745514e+001	-1.366364e+002	-7.039752e+000	1.024446e+002
2095000000	-4.983723e+000	9.346119e+001	1.210099e+001	-1.071646e+002	-2.685745e+001	-1.393915e+002	-7.071685e+000	1.008719e+002
2106000000	-5.059970e+000	9.264603e+001	1.217682e+001	-1.090860e+002	-2.652916e+001	-1.435073e+002	-6.934383e+000	9.934739e+001
2117000000	-5.142495e+000	9.166243e+001	1.221430e+001	-1.110259e+002	-2.633699e+001	-1.467749e+002	-6.884875e+000	9.702168e+001
2128000000	-5.229448e+000	9.043166e+001	1.224428e+001	-1.130134e+002	-2.606908e+001	-1.494500e+002	-6.828788e+000	9.515401e+001
2139000000	-5.350671e+000	8.921230e+001	1.224268e+001	-1.150867e+002	-2.588931e+001	-1.522102e+002	-6.697419e+000	9.318627e+001
2150000000	-5.474172e+000	8.794584e+001	1.220356e+001	-1.167953e+002	-2.572983e+001	-1.542601e+002	-6.617930e+000	9.029219e+001
2161000000	-5.621270e+000	8.674845e+001	1.220811e+001	-1.182352e+002	-2.541735e+001	-1.563715e+002	-6.587963e+000	8.792974e+001
