!Agilent Technologies,E8362C,MY49020251,A.08.50.10
!Agilent E8362C: A.08.50.10
!Date: Tuesday, May 17, 2016 05:09:25
!Correction: S11(Full 2 Port(1,2)) 
!S21(Full 2 Port(1,2)) 
!S12(Full 2 Port(1,2)) 
!S22(Full 2 Port(1,2)) 
!S2P File: Measurements: S11, S21, S12, S22:
# Hz S  dB   R 50
100000000 -8.134599e+000 -4.428030e+001 2.371491e+001 1.542681e+002 -2.777493e+001 5.603801e+000 -1.772324e+001 -1.782709e+001
112250000 -8.375914e+000 -4.527697e+001 2.366940e+001 1.512055e+002 -2.762989e+001 4.802701e+000 -1.658523e+001 -2.428849e+001
124500000 -8.616474e+000 -4.754250e+001 2.371530e+001 1.476393e+002 -2.794333e+001 2.254343e-002 -1.668137e+001 -2.774293e+001
136750000 -9.051992e+000 -4.963753e+001 2.366353e+001 1.440309e+002 -2.778736e+001 -5.574722e-001 -1.667228e+001 -2.914701e+001
149000000 -9.168094e+000 -5.113889e+001 2.355290e+001 1.411196e+002 -2.778520e+001 3.031261e-002 -1.690296e+001 -3.195733e+001
161250000 -9.197008e+000 -5.349829e+001 2.346557e+001 1.383949e+002 -2.722583e+001 7.123190e-001 -1.682542e+001 -3.584409e+001
173500000 -9.346159e+000 -5.681335e+001 2.347778e+001 1.354622e+002 -2.744968e+001 -2.899280e+000 -1.713901e+001 -3.770607e+001
185750000 -9.648538e+000 -6.016933e+001 2.344592e+001 1.319827e+002 -2.762161e+001 -4.132612e+000 -1.722668e+001 -4.032301e+001
198000000 -9.738123e+000 -6.100966e+001 2.328453e+001 1.292402e+002 -2.760335e+001 -4.286184e+000 -1.715123e+001 -3.984977e+001
210250000 -9.760870e+000 -6.434389e+001 2.321706e+001 1.266805e+002 -2.737626e+001 -6.450375e+000 -1.683665e+001 -4.763189e+001
222500000 -9.989456e+000 -6.811567e+001 2.320939e+001 1.236447e+002 -2.727263e+001 -9.450744e+000 -1.726582e+001 -4.942381e+001
234750000 -1.012244e+001 -7.096050e+001 2.313872e+001 1.201725e+002 -2.702802e+001 -8.553215e+000 -1.723429e+001 -5.340393e+001
247000000 -1.029950e+001 -7.231543e+001 2.298980e+001 1.172511e+002 -2.762861e+001 -9.986783e+000 -1.736280e+001 -5.560652e+001
259250000 -1.020261e+001 -7.561235e+001 2.282766e+001 1.146402e+002 -2.706817e+001 -1.025787e+001 -1.763616e+001 -5.995383e+001
271500000 -1.028904e+001 -8.056633e+001 2.286856e+001 1.125297e+002 -2.735164e+001 -1.326541e+001 -1.814853e+001 -5.909701e+001
283750000 -1.063065e+001 -8.334204e+001 2.280701e+001 1.089751e+002 -2.731947e+001 -1.335920e+001 -1.780349e+001 -6.247402e+001
296000000 -1.092125e+001 -8.540678e+001 2.260316e+001 1.062683e+002 -2.685394e+001 -1.325920e+001 -1.783422e+001 -6.237427e+001
308250000 -1.090092e+001 -8.896647e+001 2.252586e+001 1.038313e+002 -2.702778e+001 -1.591260e+001 -1.786896e+001 -6.697445e+001
320500000 -1.107997e+001 -9.397415e+001 2.252246e+001 1.010304e+002 -2.685574e+001 -1.747888e+001 -1.816094e+001 -7.128622e+001
332750000 -1.146005e+001 -9.612680e+001 2.248626e+001 9.778220e+001 -2.682778e+001 -1.673819e+001 -1.780710e+001 -7.424277e+001
345000000 -1.186875e+001 -9.858470e+001 2.227962e+001 9.467786e+001 -2.692686e+001 -1.815648e+001 -1.818209e+001 -7.926131e+001
357250000 -1.183413e+001 -1.001588e+002 2.219950e+001 9.248286e+001 -2.682456e+001 -1.989170e+001 -1.793853e+001 -8.001714e+001
369500000 -1.204114e+001 -1.048739e+002 2.217783e+001 8.941996e+001 -2.668056e+001 -2.005399e+001 -1.815718e+001 -8.635059e+001
381750000 -1.233207e+001 -1.082192e+002 2.206444e+001 8.604721e+001 -2.669691e+001 -2.260485e+001 -1.778297e+001 -9.172373e+001
394000000 -1.256142e+001 -1.087780e+002 2.184818e+001 8.295579e+001 -2.647024e+001 -2.391807e+001 -1.821277e+001 -9.738090e+001
406250000 -1.243853e+001 -1.111862e+002 2.162572e+001 8.039828e+001 -2.664138e+001 -2.498142e+001 -1.817299e+001 -1.059721e+002
418500000 -1.210768e+001 -1.128567e+002 2.134798e+001 7.784991e+001 -2.706006e+001 -2.726076e+001 -1.942082e+001 -1.209788e+002
430750000 -1.159285e+001 -1.221193e+002 2.123114e+001 7.755126e+001 -2.691657e+001 -2.540753e+001 -2.366939e+001 -1.156739e+002
443000000 -1.225321e+001 -1.290557e+002 2.137594e+001 7.511689e+001 -2.621312e+001 -2.487180e+001 -2.174647e+001 -9.470450e+001
455250000 -1.276007e+001 -1.335669e+002 2.132311e+001 7.208538e+001 -2.604084e+001 -2.744825e+001 -2.052625e+001 -9.976466e+001
467500000 -1.324371e+001 -1.362729e+002 2.129427e+001 6.932139e+001 -2.610705e+001 -2.951436e+001 -2.011432e+001 -1.052353e+002
479750000 -1.345077e+001 -1.393272e+002 2.123739e+001 6.585146e+001 -2.602888e+001 -2.933435e+001 -1.964141e+001 -1.110170e+002
492000000 -1.371927e+001 -1.416602e+002 2.102458e+001 6.296428e+001 -2.588177e+001 -3.259579e+001 -1.949745e+001 -1.187434e+002
504250000 -1.371233e+001 -1.436165e+002 2.086433e+001 6.053688e+001 -2.577250e+001 -3.200017e+001 -1.889245e+001 -1.239058e+002
516500000 -1.377047e+001 -1.483379e+002 2.075953e+001 5.805667e+001 -2.585105e+001 -3.409698e+001 -1.902608e+001 -1.332921e+002
528750000 -1.421339e+001 -1.517076e+002 2.064969e+001 5.507914e+001 -2.576877e+001 -3.642305e+001 -1.926687e+001 -1.405642e+002
541000000 -1.397936e+001 -1.532830e+002 2.036536e+001 5.279737e+001 -2.582650e+001 -3.760383e+001 -1.964583e+001 -1.483098e+002
553250000 -1.369685e+001 -1.578759e+002 2.024168e+001 5.140109e+001 -2.584739e+001 -3.818720e+001 -2.064483e+001 -1.552687e+002
565500000 -1.377042e+001 -1.648238e+002 2.026677e+001 4.949490e+001 -2.566594e+001 -3.901001e+001 -2.193517e+001 -1.551346e+002
577750000 -1.404203e+001 -1.690703e+002 2.026194e+001 4.654736e+001 -2.555714e+001 -3.962630e+001 -2.154622e+001 -1.462458e+002
590000000 -1.435386e+001 -1.727880e+002 2.011665e+001 4.381319e+001 -2.550783e+001 -4.266908e+001 -2.018290e+001 -1.483321e+002
602250000 -1.443842e+001 -1.772899e+002 2.002436e+001 4.097136e+001 -2.544472e+001 -4.350314e+001 -1.921675e+001 -1.555543e+002
614500000 -1.470890e+001 1.798565e+002 1.992385e+001 3.784300e+001 -2.545528e+001 -4.477120e+001 -1.860095e+001 -1.652207e+002
626750000 -1.471898e+001 1.786353e+002 1.960141e+001 3.514320e+001 -2.534982e+001 -4.632479e+001 -1.834086e+001 -1.750330e+002
639000000 -1.436444e+001 1.750016e+002 1.936517e+001 3.427024e+001 -2.533988e+001 -4.639286e+001 -1.951993e+001 1.769886e+002
651250000 -1.422390e+001 1.687373e+002 1.946847e+001 3.256392e+001 -2.533164e+001 -4.740408e+001 -1.993981e+001 1.795716e+002
663500000 -1.442637e+001 1.641633e+002 1.943991e+001 2.946172e+001 -2.517149e+001 -4.882314e+001 -1.967179e+001 1.772738e+002
675750000 -1.466970e+001 1.601031e+002 1.925898e+001 2.647307e+001 -2.506855e+001 -5.040598e+001 -1.917547e+001 1.769191e+002
688000000 -1.486398e+001 1.571982e+002 1.907919e+001 2.433219e+001 -2.506915e+001 -5.226910e+001 -1.843048e+001 1.730616e+002
700250000 -1.482085e+001 1.537355e+002 1.901592e+001 2.197071e+001 -2.489535e+001 -5.381124e+001 -1.780049e+001 1.687259e+002
712500000 -1.492618e+001 1.506978e+002 1.882492e+001 1.924289e+001 -2.494205e+001 -5.531806e+001 -1.728161e+001 1.661620e+002
724750000 -1.518554e+001 1.473354e+002 1.868296e+001 1.634362e+001 -2.484101e+001 -5.788912e+001 -1.661787e+001 1.583672e+002
737000000 -1.535863e+001 1.479538e+002 1.839039e+001 1.394888e+001 -2.488995e+001 -5.826230e+001 -1.633825e+001 1.520410e+002
749250000 -1.502292e+001 1.482077e+002 1.808657e+001 1.281951e+001 -2.514274e+001 -5.978698e+001 -1.608591e+001 1.425425e+002
761500000 -1.440036e+001 1.444797e+002 1.799145e+001 1.162792e+001 -2.519259e+001 -5.981555e+001 -1.663354e+001 1.345292e+002
773750000 -1.391866e+001 1.387396e+002 1.798767e+001 1.061001e+001 -2.502335e+001 -6.086437e+001 -1.746640e+001 1.295037e+002
786000000 -1.372056e+001 1.336754e+002 1.806422e+001 8.478432e+000 -2.486399e+001 -6.110935e+001 -1.828503e+001 1.308746e+002
798250000 -1.388151e+001 1.279610e+002 1.808296e+001 5.460131e+000 -2.471768e+001 -6.244418e+001 -1.836220e+001 1.375654e+002
810500000 -1.419171e+001 1.245882e+002 1.800343e+001 2.438332e+000 -2.448602e+001 -6.537998e+001 -1.743450e+001 1.405869e+002
822750000 -1.442306e+001 1.206918e+002 1.782195e+001 -8.248841e-001 -2.436637e+001 -6.771886e+001 -1.615840e+001 1.389662e+002
835000000 -1.475754e+001 1.202199e+002 1.756478e+001 -3.269999e+000 -2.447080e+001 -7.057793e+001 -1.520614e+001 1.350302e+002
847250000 -1.483120e+001 1.205257e+002 1.731630e+001 -5.780409e+000 -2.461331e+001 -7.238055e+001 -1.463950e+001 1.295569e+002
859500000 -1.488641e+001 1.198784e+002 1.704179e+001 -8.042757e+000 -2.468688e+001 -7.388793e+001 -1.404588e+001 1.243437e+002
871750000 -1.467426e+001 1.204770e+002 1.675848e+001 -9.922913e+000 -2.487698e+001 -7.583371e+001 -1.343781e+001 1.185039e+002
884000000 -1.421806e+001 1.220083e+002 1.644249e+001 -1.113272e+001 -2.506868e+001 -7.645430e+001 -1.296151e+001 1.117830e+002
896250000 -1.359170e+001 1.229259e+002 1.619994e+001 -1.137350e+001 -2.539829e+001 -7.605112e+001 -1.292124e+001 1.041456e+002
908500000 -1.262274e+001 1.199990e+002 1.607425e+001 -1.182338e+001 -2.544263e+001 -7.519108e+001 -1.293585e+001 9.666651e+001
920750000 -1.184559e+001 1.150658e+002 1.605178e+001 -1.264315e+001 -2.540423e+001 -7.403854e+001 -1.327473e+001 9.118076e+001
933000000 -1.132632e+001 1.102358e+002 1.607445e+001 -1.342378e+001 -2.502984e+001 -7.362814e+001 -1.356696e+001 8.587350e+001
945250000 -1.114334e+001 1.045671e+002 1.609307e+001 -1.461020e+001 -2.476437e+001 -7.392564e+001 -1.404006e+001 8.196715e+001
957500000 -1.104778e+001 1.000818e+002 1.613664e+001 -1.648130e+001 -2.464229e+001 -7.531802e+001 -1.442939e+001 7.824805e+001
969750000 -1.088534e+001 9.634043e+001 1.620037e+001 -1.806481e+001 -2.437604e+001 -7.605052e+001 -1.494071e+001 7.452714e+001
982000000 -1.082496e+001 9.233965e+001 1.622555e+001 -2.007664e+001 -2.420363e+001 -7.764552e+001 -1.546436e+001 7.313596e+001
994250000 -1.076044e+001 8.839784e+001 1.620683e+001 -2.231094e+001 -2.401246e+001 -7.907316e+001 -1.582696e+001 7.231030e+001
1006500000 -1.081237e+001 8.545115e+001 1.623236e+001 -2.447960e+001 -2.380249e+001 -8.056785e+001 -1.647052e+001 7.254447e+001
1018750000 -1.076731e+001 8.195199e+001 1.622400e+001 -2.677364e+001 -2.380952e+001 -8.259536e+001 -1.669465e+001 7.364516e+001
1031000000 -1.072506e+001 7.928960e+001 1.619982e+001 -2.917275e+001 -2.363352e+001 -8.367381e+001 -1.690004e+001 7.563445e+001
1043250000 -1.070413e+001 7.585725e+001 1.614583e+001 -3.180339e+001 -2.353334e+001 -8.565694e+001 -1.689103e+001 7.607043e+001
1055500000 -1.080809e+001 7.344086e+001 1.607141e+001 -3.401960e+001 -2.341642e+001 -8.739814e+001 -1.687861e+001 7.713021e+001
1067750000 -1.082315e+001 7.119643e+001 1.600509e+001 -3.648172e+001 -2.328924e+001 -9.002577e+001 -1.662721e+001 7.824763e+001
1080000000 -1.081087e+001 6.862609e+001 1.591309e+001 -3.888663e+001 -2.332202e+001 -9.137832e+001 -1.633759e+001 7.829092e+001
1092250000 -1.082415e+001 6.709334e+001 1.579579e+001 -4.109240e+001 -2.328460e+001 -9.365948e+001 -1.615953e+001 7.859264e+001
1104500000 -1.087294e+001 6.542568e+001 1.568192e+001 -4.335681e+001 -2.332947e+001 -9.547436e+001 -1.598816e+001 7.851375e+001
1116750000 -1.084832e+001 6.352106e+001 1.559082e+001 -4.550736e+001 -2.335411e+001 -9.620776e+001 -1.581389e+001 7.833872e+001
1129000000 -1.081237e+001 6.266376e+001 1.546495e+001 -4.753782e+001 -2.339276e+001 -9.794852e+001 -1.551387e+001 7.705354e+001
1141250000 -1.060146e+001 6.104499e+001 1.533322e+001 -4.952148e+001 -2.334534e+001 -9.844170e+001 -1.528457e+001 7.608381e+001
1153500000 -1.048692e+001 5.870740e+001 1.525153e+001 -5.143084e+001 -2.326871e+001 -9.975288e+001 -1.515077e+001 7.469295e+001
1165750000 -1.044691e+001 5.589984e+001 1.516578e+001 -5.331708e+001 -2.309099e+001 -1.008590e+002 -1.508348e+001 7.428356e+001
1178000000 -1.045933e+001 5.371102e+001 1.508271e+001 -5.527902e+001 -2.301647e+001 -1.030773e+002 -1.483817e+001 7.334747e+001
1190250000 -1.050059e+001 5.247534e+001 1.496903e+001 -5.746882e+001 -2.294736e+001 -1.051867e+002 -1.463884e+001 7.234264e+001
1202500000 -1.053101e+001 5.150347e+001 1.483552e+001 -5.945007e+001 -2.303385e+001 -1.064214e+002 -1.435587e+001 7.043600e+001
1214750000 -1.037789e+001 5.030602e+001 1.471452e+001 -6.150863e+001 -2.302357e+001 -1.075156e+002 -1.412674e+001 6.879108e+001
1227000000 -1.024332e+001 4.902424e+001 1.459138e+001 -6.296499e+001 -2.298699e+001 -1.087008e+002 -1.399220e+001 6.696863e+001
1239250000 -1.005693e+001 4.758632e+001 1.449078e+001 -6.448257e+001 -2.298746e+001 -1.094053e+002 -1.392341e+001 6.393974e+001
1251500000 -9.873793e+000 4.536165e+001 1.442340e+001 -6.606454e+001 -2.296077e+001 -1.103640e+002 -1.401534e+001 6.224487e+001
1263750000 -9.741051e+000 4.261508e+001 1.441301e+001 -6.748575e+001 -2.282146e+001 -1.112209e+002 -1.411150e+001 5.954747e+001
1276000000 -9.647831e+000 3.993272e+001 1.442685e+001 -6.948103e+001 -2.269031e+001 -1.127395e+002 -1.438513e+001 5.883488e+001
1288250000 -9.647865e+000 3.727342e+001 1.439066e+001 -7.159555e+001 -2.248830e+001 -1.146058e+002 -1.457124e+001 5.866150e+001
1300500000 -9.709597e+000 3.465497e+001 1.435410e+001 -7.375091e+001 -2.233188e+001 -1.160688e+002 -1.469960e+001 5.964730e+001
1312750000 -9.851369e+000 3.236312e+001 1.429674e+001 -7.607922e+001 -2.228520e+001 -1.180512e+002 -1.478126e+001 6.008356e+001
1325000000 -9.875359e+000 3.075714e+001 1.424759e+001 -7.815600e+001 -2.221394e+001 -1.202926e+002 -1.466859e+001 6.043583e+001
1337250000 -1.003498e+001 2.932823e+001 1.416117e+001 -8.050739e+001 -2.206379e+001 -1.220521e+002 -1.446251e+001 6.159206e+001
1349500000 -1.018863e+001 2.747628e+001 1.406860e+001 -8.257768e+001 -2.198261e+001 -1.242955e+002 -1.432694e+001 6.163739e+001
1361750000 -1.027388e+001 2.644790e+001 1.397839e+001 -8.473287e+001 -2.204518e+001 -1.259879e+002 -1.418815e+001 6.104671e+001
1374000000 -1.031351e+001 2.554033e+001 1.388425e+001 -8.681831e+001 -2.201670e+001 -1.280171e+002 -1.398020e+001 6.100750e+001
1386250000 -1.039489e+001 2.472644e+001 1.375622e+001 -8.863789e+001 -2.196192e+001 -1.298848e+002 -1.379468e+001 6.102400e+001
1398500000 -1.042510e+001 2.376544e+001 1.367256e+001 -9.072910e+001 -2.204977e+001 -1.312487e+002 -1.378015e+001 6.041654e+001
1410750000 -1.040569e+001 2.261660e+001 1.360488e+001 -9.269493e+001 -2.205034e+001 -1.330097e+002 -1.359586e+001 6.024859e+001
1423000000 -1.046590e+001 2.152715e+001 1.349934e+001 -9.488398e+001 -2.201550e+001 -1.344243e+002 -1.340095e+001 6.001422e+001
1435250000 -1.049426e+001 2.101641e+001 1.341450e+001 -9.694548e+001 -2.188636e+001 -1.371134e+002 -1.322186e+001 6.027654e+001
1447500000 -1.053767e+001 2.067799e+001 1.332788e+001 -9.904700e+001 -2.197013e+001 -1.382305e+002 -1.295515e+001 6.053668e+001
1459750000 -1.055065e+001 2.021993e+001 1.325163e+001 -1.012833e+002 -2.194559e+001 -1.401055e+002 -1.273803e+001 5.972024e+001
1472000000 -1.054712e+001 1.925431e+001 1.310530e+001 -1.034636e+002 -2.198783e+001 -1.421062e+002 -1.242003e+001 5.963283e+001
1484250000 -1.048028e+001 1.932637e+001 1.294362e+001 -1.056933e+002 -2.204370e+001 -1.442611e+002 -1.203987e+001 5.867488e+001
1496500000 -1.043476e+001 1.913698e+001 1.281335e+001 -1.074147e+002 -2.201235e+001 -1.450632e+002 -1.167061e+001 5.795532e+001
1508750000 -1.039863e+001 1.821227e+001 1.262412e+001 -1.094832e+002 -2.207938e+001 -1.467957e+002 -1.127599e+001 5.575608e+001
1521000000 -1.023767e+001 1.806965e+001 1.242876e+001 -1.109940e+002 -2.213378e+001 -1.486214e+002 -1.102265e+001 5.278682e+001
1533250000 -1.002791e+001 1.724231e+001 1.226093e+001 -1.122873e+002 -2.220888e+001 -1.493776e+002 -1.084767e+001 4.986702e+001
1545500000 -9.854703e+000 1.579397e+001 1.212783e+001 -1.133347e+002 -2.214711e+001 -1.494665e+002 -1.083266e+001 4.649377e+001
1557750000 -9.671044e+000 1.359231e+001 1.212008e+001 -1.140306e+002 -2.216461e+001 -1.508963e+002 -1.092050e+001 4.359629e+001
1570000000 -9.758210e+000 1.102915e+001 1.216351e+001 -1.156044e+002 -2.197873e+001 -1.513687e+002 -1.125255e+001 4.197788e+001
1582250000 -9.909031e+000 1.030074e+001 1.218298e+001 -1.175549e+002 -2.188597e+001 -1.533065e+002 -1.144167e+001 4.182986e+001
1594500000 -9.944709e+000 9.535730e+000 1.210821e+001 -1.195761e+002 -2.173129e+001 -1.555782e+002 -1.146827e+001 4.291164e+001
1606750000 -9.972919e+000 8.341519e+000 1.204893e+001 -1.217954e+002 -2.173900e+001 -1.581654e+002 -1.127230e+001 4.288791e+001
1619000000 -9.992838e+000 8.176955e+000 1.196799e+001 -1.236814e+002 -2.183702e+001 -1.603466e+002 -1.106533e+001 4.162988e+001
1631250000 -9.976457e+000 8.699499e+000 1.183607e+001 -1.253361e+002 -2.183986e+001 -1.610003e+002 -1.110605e+001 4.051440e+001
1643500000 -9.786833e+000 8.013021e+000 1.176798e+001 -1.268001e+002 -2.176773e+001 -1.631796e+002 -1.106926e+001 3.938394e+001
1655750000 -9.688943e+000 6.136658e+000 1.174529e+001 -1.285362e+002 -2.187338e+001 -1.642596e+002 -1.108421e+001 3.802391e+001
1668000000 -9.797622e+000 5.007221e+000 1.176896e+001 -1.304468e+002 -2.177357e+001 -1.652130e+002 -1.120164e+001 3.834586e+001
1680250000 -9.922265e+000 4.819800e+000 1.168995e+001 -1.327217e+002 -2.172712e+001 -1.671189e+002 -1.119394e+001 3.884468e+001
1692500000 -9.913925e+000 5.152107e+000 1.159068e+001 -1.347933e+002 -2.168565e+001 -1.704615e+002 -1.100736e+001 3.900306e+001
1704750000 -9.782575e+000 4.957994e+000 1.152940e+001 -1.370025e+002 -2.179913e+001 -1.723640e+002 -1.079178e+001 3.876045e+001
1717000000 -9.742013e+000 5.437423e+000 1.142674e+001 -1.391392e+002 -2.192715e+001 -1.742451e+002 -1.065031e+001 3.862143e+001
1729250000 -9.452173e+000 5.481601e+000 1.129725e+001 -1.412561e+002 -2.196730e+001 -1.756767e+002 -1.040747e+001 3.826965e+001
1741500000 -9.162253e+000 4.595041e+000 1.111906e+001 -1.429895e+002 -2.208978e+001 -1.769885e+002 -1.004302e+001 3.719952e+001
1753750000 -8.931119e+000 3.264822e+000 1.100467e+001 -1.445977e+002 -2.228020e+001 -1.785534e+002 -9.850723e+000 3.533209e+001
1766000000 -8.799955e+000 1.647456e+000 1.082547e+001 -1.465618e+002 -2.243933e+001 -1.786769e+002 -9.763908e+000 3.384377e+001
1778250000 -8.566852e+000 2.936091e-001 1.068719e+001 -1.479028e+002 -2.234891e+001 -1.793801e+002 -9.579358e+000 3.204536e+001
1790500000 -8.461993e+000 -1.508810e+000 1.057534e+001 -1.489412e+002 -2.236389e+001 -1.797756e+002 -9.463619e+000 2.994944e+001
1802750000 -8.393482e+000 -3.671079e+000 1.053500e+001 -1.501902e+002 -2.238926e+001 1.792550e+002 -9.505826e+000 2.758148e+001
1815000000 -8.418680e+000 -5.417783e+000 1.048228e+001 -1.513913e+002 -2.222644e+001 1.792028e+002 -9.575445e+000 2.561850e+001
1827250000 -8.387143e+000 -6.863507e+000 1.042353e+001 -1.527624e+002 -2.215867e+001 1.781608e+002 -9.735810e+000 2.445405e+001
1839500000 -8.373191e+000 -7.770046e+000 1.045175e+001 -1.537775e+002 -2.192168e+001 1.761336e+002 -9.785665e+000 2.383148e+001
1851750000 -8.429377e+000 -9.421297e+000 1.046593e+001 -1.554846e+002 -2.200011e+001 1.747471e+002 -9.919641e+000 2.235068e+001
1864000000 -8.496490e+000 -1.056438e+001 1.051119e+001 -1.572910e+002 -2.183020e+001 1.738607e+002 -1.012806e+001 2.203972e+001
1876250000 -8.531734e+000 -1.091815e+001 1.052490e+001 -1.592578e+002 -2.174287e+001 1.714303e+002 -1.028197e+001 2.344245e+001
1888500000 -8.508473e+000 -1.168157e+001 1.054501e+001 -1.616265e+002 -2.166456e+001 1.699274e+002 -1.016952e+001 2.453321e+001
1900750000 -8.553348e+000 -1.253843e+001 1.055270e+001 -1.639425e+002 -2.165642e+001 1.670549e+002 -1.006161e+001 2.459558e+001
1913000000 -8.565224e+000 -1.256299e+001 1.045403e+001 -1.665258e+002 -2.160523e+001 1.656210e+002 -9.970973e+000 2.563828e+001
1925250000 -8.505089e+000 -1.239477e+001 1.032522e+001 -1.688731e+002 -2.164158e+001 1.629419e+002 -9.654616e+000 2.616689e+001
1937500000 -8.357383e+000 -1.265543e+001 1.021397e+001 -1.712056e+002 -2.168308e+001 1.608054e+002 -9.295525e+000 2.582231e+001
1949750000 -8.128261e+000 -1.323467e+001 1.012020e+001 -1.734614e+002 -2.179845e+001 1.587174e+002 -9.099702e+000 2.424351e+001
1962000000 -7.994514e+000 -1.391638e+001 9.919047e+000 -1.753449e+002 -2.196415e+001 1.581303e+002 -8.905550e+000 2.349334e+001
