!Agilent Technologies,E8362C,MY49020251,A.08.50.10
!Agilent E8362C: A.08.50.10
!Date: Wednesday, April 06, 2016 08:37:59
!Correction: S11(Full 2 Port(1,2)) 
!S21(Full 2 Port(1,2)) 
!S12(Full 2 Port(1,2)) 
!S22(Full 2 Port(1,2)) 
!S2P File: Measurements: S11, S21, S12, S22:
# Hz S  dB   R 50
1000000000 -2.845064e+000 1.356328e+001 2.107167e+001 -1.789706e+002 -2.883021e+001 1.166427e+002 2.006851e-001 5.198630e+001
1085000000 -6.440219e+000 3.333456e+001 2.252609e+001 1.334553e+002 -2.661426e+001 7.234423e+001 1.169057e+000 -4.879198e+000
1170000000 -3.685523e+000 5.380834e+001 1.999872e+001 9.226891e+001 -2.844666e+001 3.254308e+001 -2.420556e+000 -5.829807e+001
1255000000 -2.263497e+000 5.433218e+001 1.768736e+001 6.651706e+001 -2.980149e+001 8.315472e+000 -5.356279e+000 -9.576656e+001
1340000000 -1.509608e+000 5.314837e+001 1.576778e+001 4.499759e+001 -3.130972e+001 -1.058173e+001 -8.939076e+000 -1.316797e+002
1425000000 -1.186817e+000 5.158023e+001 1.427701e+001 2.822222e+001 -3.196936e+001 -2.650258e+001 -1.143705e+001 -1.643502e+002
1510000000 -1.061638e+000 5.005504e+001 1.322393e+001 1.197514e+001 -3.241700e+001 -3.977736e+001 -1.434701e+001 1.613047e+002
1595000000 -9.630219e-001 4.874157e+001 1.264170e+001 -2.836143e+000 -3.255002e+001 -5.390700e+001 -1.616500e+001 1.240427e+002
1680000000 -9.971226e-001 4.693586e+001 1.216876e+001 -1.830245e+001 -3.215865e+001 -6.734023e+001 -1.798125e+001 8.655500e+001
1765000000 -9.924549e-001 4.486777e+001 1.217954e+001 -3.344895e+001 -3.188054e+001 -8.048327e+001 -1.914599e+001 4.108930e+001
1850000000 -1.169917e+000 4.179541e+001 1.220875e+001 -4.902700e+001 -3.110198e+001 -9.554019e+001 -1.990050e+001 8.910812e+000
1935000000 -1.415099e+000 3.813557e+001 1.278237e+001 -6.588177e+001 -3.003905e+001 -1.092896e+002 -2.031369e+001 -4.552351e+001
2020000000 -1.756987e+000 3.342311e+001 1.324333e+001 -8.348916e+001 -2.918488e+001 -1.272217e+002 -2.127601e+001 -8.611569e+001
2105000000 -2.554987e+000 2.537524e+001 1.427711e+001 -1.036267e+002 -2.740874e+001 -1.441971e+002 -1.927568e+001 -1.590552e+002
2190000000 -3.949027e+000 1.727914e+001 1.516525e+001 -1.257424e+002 -2.633177e+001 -1.661054e+002 -1.757923e+001 1.485467e+002
2275000000 -6.670899e+000 4.023057e+000 1.619337e+001 -1.518065e+002 -2.461899e+001 1.692035e+002 -1.271703e+001 9.314394e+001
2360000000 -1.486670e+001 -7.419758e+000 1.678643e+001 1.770775e+002 -2.367928e+001 1.409745e+002 -1.022630e+001 4.762452e+001
2445000000 -1.902543e+001 1.165841e+002 1.652279e+001 1.475056e+002 -2.341813e+001 1.101150e+002 -8.264485e+000 1.768202e+000
2530000000 -8.207351e+000 1.175556e+002 1.562169e+001 1.155727e+002 -2.393766e+001 8.205907e+001 -7.925673e+000 -3.831238e+001
2615000000 -5.198443e+000 1.057958e+002 1.450568e+001 9.185314e+001 -2.467384e+001 5.768054e+001 -8.305949e+000 -7.337450e+001
2700000000 -3.635238e+000 9.567747e+001 1.320238e+001 6.768277e+001 -2.534256e+001 3.524953e+001 -8.963469e+000 -1.035107e+002
2785000000 -2.670016e+000 8.750481e+001 1.230024e+001 4.760373e+001 -2.619899e+001 1.711296e+001 -1.038549e+001 -1.298974e+002
2870000000 -2.499958e+000 7.970250e+001 1.124593e+001 2.954084e+001 -2.646996e+001 -1.236687e+000 -1.137280e+001 -1.550769e+002
2955000000 -2.158881e+000 7.432240e+001 1.102708e+001 1.034189e+001 -2.654716e+001 -1.770030e+001 -1.384884e+001 -1.772905e+002
3040000000 -2.126212e+000 6.724699e+001 1.040249e+001 -7.355707e+000 -2.680402e+001 -3.572471e+001 -1.578412e+001 1.601851e+002
3125000000 -2.345772e+000 6.060102e+001 1.032670e+001 -2.561129e+001 -2.622302e+001 -5.165870e+001 -1.928218e+001 1.503484e+002
3210000000 -2.535681e+000 5.428768e+001 1.042500e+001 -4.380867e+001 -2.616092e+001 -6.965869e+001 -2.453026e+001 1.320812e+002
3295000000 -3.052578e+000 4.551122e+001 1.057959e+001 -6.340195e+001 -2.531955e+001 -8.811246e+001 -2.544680e+001 1.706589e+002
3380000000 -3.977357e+000 3.621392e+001 1.104009e+001 -8.442294e+001 -2.468507e+001 -1.073167e+002 -2.228629e+001 -1.693348e+002
3465000000 -5.278814e+000 2.447609e+001 1.140685e+001 -1.057836e+002 -2.400122e+001 -1.294899e+002 -1.974509e+001 1.657563e+002
3550000000 -8.414382e+000 8.825053e+000 1.181170e+001 -1.319682e+002 -2.304754e+001 -1.526485e+002 -1.712883e+001 1.409424e+002
3635000000 -1.339586e+001 -9.891848e+000 1.206422e+001 -1.561435e+002 -2.275653e+001 -1.775150e+002 -1.758016e+001 1.073360e+002
3720000000 -2.534631e+001 -1.462665e+002 1.172981e+001 1.743474e+002 -2.249858e+001 1.543456e+002 -1.762267e+001 5.725149e+001
3805000000 -1.197959e+001 1.533931e+002 1.131579e+001 1.489573e+002 -2.284182e+001 1.307102e+002 -2.010359e+001 1.225231e+001
3890000000 -7.920439e+000 1.348268e+002 1.030035e+001 1.237677e+002 -2.337285e+001 1.046923e+002 -1.868816e+001 -5.056639e+001
3975000000 -5.151752e+000 1.222577e+002 9.490497e+000 1.003824e+002 -2.385740e+001 8.447906e+001 -1.875469e+001 -9.868817e+001
4060000000 -4.042584e+000 1.091424e+002 8.501634e+000 8.074802e+001 -2.473733e+001 6.307378e+001 -1.587849e+001 -1.400681e+002
4145000000 -3.337653e+000 1.000882e+002 7.880684e+000 5.991579e+001 -2.478016e+001 4.511652e+001 -1.564963e+001 -1.715780e+002
4230000000 -2.745516e+000 9.121357e+001 7.277287e+000 4.182998e+001 -2.539697e+001 2.705616e+001 -1.407540e+001 1.601113e+002
4315000000 -2.608170e+000 8.253873e+001 6.879587e+000 2.416096e+001 -2.521587e+001 8.901928e+000 -1.369942e+001 1.360271e+002
4400000000 -2.417840e+000 7.439967e+001 6.880061e+000 4.674819e+000 -2.519623e+001 -6.671390e+000 -1.356213e+001 1.095496e+002
4485000000 -2.498759e+000 6.613197e+001 6.763775e+000 -1.217379e+001 -2.484279e+001 -2.633363e+001 -1.370501e+001 8.870316e+001
4570000000 -2.751534e+000 5.640167e+001 7.155084e+000 -3.354585e+001 -2.418302e+001 -4.438321e+001 -1.504102e+001 6.407585e+001
4655000000 -2.997558e+000 4.754175e+001 7.312165e+000 -5.187063e+001 -2.402161e+001 -6.336005e+001 -1.538705e+001 4.197030e+001
4740000000 -3.853779e+000 3.379720e+001 7.782234e+000 -7.464190e+001 -2.281931e+001 -8.500976e+001 -1.887886e+001 2.186980e+001
4825000000 -4.892293e+000 2.234974e+001 8.339773e+000 -9.634150e+001 -2.252429e+001 -1.058052e+002 -2.125647e+001 -2.134159e+000
4910000000 -6.655149e+000 2.905351e+000 8.592293e+000 -1.222281e+002 -2.165684e+001 -1.318390e+002 -2.385110e+001 2.884364e+001
4995000000 -1.018807e+001 -2.347775e+001 8.970751e+000 -1.477664e+002 -2.111230e+001 -1.550114e+002 -2.380302e+001 4.002218e+001
5080000000 -1.562865e+001 -6.375805e+001 8.892136e+000 -1.747968e+002 -2.109154e+001 1.761426e+002 -1.816609e+001 1.589897e+001
5165000000 -1.492732e+001 -1.518109e+002 8.533651e+000 1.565145e+002 -2.095828e+001 1.505784e+002 -1.658348e+001 -5.949708e+000
5250000000 -1.043172e+001 1.615015e+002 7.863600e+000 1.307479e+002 -2.165133e+001 1.240591e+002 -1.541380e+001 -4.481831e+001
5335000000 -7.612703e+000 1.390447e+002 6.963702e+000 1.053738e+002 -2.211354e+001 9.893859e+001 -1.465055e+001 -7.627384e+001
5420000000 -5.632950e+000 1.212834e+002 6.003567e+000 8.131585e+001 -2.296982e+001 7.754214e+001 -1.451674e+001 -1.151822e+002
5505000000 -4.845258e+000 1.068849e+002 5.051754e+000 6.110110e+001 -2.368650e+001 5.507407e+001 -1.414547e+001 -1.480351e+002
5590000000 -4.202133e+000 9.466664e+001 4.183792e+000 3.893307e+001 -2.421706e+001 3.652668e+001 -1.455222e+001 -1.792622e+002
5675000000 -3.947435e+000 8.323945e+001 3.397252e+000 2.167758e+001 -2.494017e+001 1.794725e+001 -1.351815e+001 1.503309e+002
5760000000 -3.990709e+000 7.217115e+001 2.926840e+000 2.223354e+000 -2.499298e+001 -8.867906e-001 -1.338345e+001 1.214408e+002
5845000000 -4.031412e+000 6.179807e+001 2.485629e+000 -1.625613e+001 -2.546354e+001 -1.657603e+001 -1.277314e+001 9.119447e+001
5930000000 -4.437528e+000 4.970467e+001 2.225967e+000 -3.326425e+001 -2.519847e+001 -3.656617e+001 -1.253841e+001 6.892144e+001
6015000000 -5.001418e+000 3.714326e+001 2.334915e+000 -5.270349e+001 -2.516377e+001 -5.229427e+001 -1.199260e+001 4.552351e+001
6100000000 -5.718884e+000 2.309373e+001 2.208864e+000 -7.124843e+001 -2.500642e+001 -7.212943e+001 -1.138315e+001 2.430386e+001
6185000000 -6.967637e+000 4.115150e+000 2.468417e+000 -9.049082e+001 -2.428478e+001 -9.047081e+001 -1.132306e+001 -5.898222e-001
6270000000 -8.280873e+000 -1.767773e+001 2.925555e+000 -1.118893e+002 -2.419945e+001 -1.106327e+002 -1.139573e+001 -1.979966e+001
6355000000 -1.008202e+001 -4.922702e+001 2.813960e+000 -1.336503e+002 -2.339656e+001 -1.326865e+002 -1.134377e+001 -3.778567e+001
6440000000 -1.029213e+001 -8.982430e+001 3.387505e+000 -1.556873e+002 -2.318456e+001 -1.534465e+002 -1.079527e+001 -6.021545e+001
6525000000 -9.782015e+000 -1.274984e+002 3.287610e+000 -1.796798e+002 -2.290721e+001 -1.780567e+002 -1.104869e+001 -7.796471e+001
6610000000 -7.214519e+000 -1.610342e+002 3.326518e+000 1.562773e+002 -2.244509e+001 1.607108e+002 -1.124797e+001 -9.560346e+001
6695000000 -5.882571e+000 1.762149e+002 3.296958e+000 1.344971e+002 -2.276782e+001 1.355457e+002 -1.079023e+001 -1.104071e+002
6780000000 -4.520350e+000 1.565157e+002 3.109161e+000 1.086460e+002 -2.230478e+001 1.142548e+002 -1.072994e+001 -1.295627e+002
6865000000 -3.438402e+000 1.406558e+002 2.941931e+000 8.638710e+001 -2.262769e+001 9.060708e+001 -1.063775e+001 -1.482698e+002
6950000000 -3.169572e+000 1.258176e+002 2.664442e+000 6.367177e+001 -2.237247e+001 6.702457e+001 -1.083509e+001 -1.619977e+002
7035000000 -2.666723e+000 1.130804e+002 2.530850e+000 3.896450e+001 -2.276396e+001 4.688409e+001 -1.033386e+001 1.793535e+002
7120000000 -2.749641e+000 1.017756e+002 2.059002e+000 1.775803e+001 -2.256550e+001 2.121936e+001 -9.967519e+000 1.620075e+002
7205000000 -2.935208e+000 9.040715e+001 1.958448e+000 -6.960431e+000 -2.278367e+001 1.798273e-001 -1.048161e+001 1.438725e+002
7290000000 -3.253314e+000 8.120898e+001 1.413307e+000 -2.919176e+001 -2.333423e+001 -2.294802e+001 -1.021557e+001 1.274186e+002
7375000000 -3.962974e+000 7.175758e+001 8.802317e-001 -5.182940e+001 -2.311298e+001 -4.495801e+001 -1.021527e+001 1.084596e+002
7460000000 -4.490716e+000 6.457017e+001 7.241087e-001 -7.379615e+001 -2.392785e+001 -6.670713e+001 -1.107567e+001 8.591171e+001
7545000000 -5.466447e+000 5.698658e+001 -1.614032e-001 -9.609246e+001 -2.399312e+001 -8.735097e+001 -1.166993e+001 6.599760e+001
7630000000 -6.336360e+000 5.077348e+001 -4.216498e-001 -1.153119e+002 -2.438753e+001 -1.068372e+002 -1.277052e+001 4.085239e+001
7715000000 -7.393118e+000 4.473593e+001 -8.452623e-001 -1.363721e+002 -2.458968e+001 -1.279925e+002 -1.444447e+001 1.517052e+001
7800000000 -8.819968e+000 3.784118e+001 -1.095180e+000 -1.567543e+002 -2.459057e+001 -1.462391e+002 -1.634456e+001 -1.442167e+001
7885000000 -1.063622e+001 3.343567e+001 -1.315996e+000 -1.758436e+002 -2.479596e+001 -1.672172e+002 -1.760606e+001 -5.228981e+001
7970000000 -1.357684e+001 2.896941e+001 -1.449862e+000 1.626165e+002 -2.460265e+001 1.737869e+002 -1.816446e+001 -1.002498e+002
8055000000 -1.817411e+001 3.827517e+001 -1.417503e+000 1.427324e+002 -2.462815e+001 1.522468e+002 -1.656985e+001 -1.454804e+002
8140000000 -2.080378e+001 8.883438e+001 -1.709647e+000 1.200663e+002 -2.475968e+001 1.313816e+002 -1.469219e+001 -1.714260e+002
8225000000 -1.537553e+001 1.190684e+002 -1.939663e+000 9.976219e+001 -2.469618e+001 1.124626e+002 -1.236918e+001 1.660133e+002
8310000000 -1.112769e+001 1.176744e+002 -2.035273e+000 7.995161e+001 -2.477425e+001 9.072623e+001 -1.036008e+001 1.441186e+002
8395000000 -8.512990e+000 1.096539e+002 -2.248249e+000 5.670490e+001 -2.478484e+001 7.033237e+001 -9.531131e+000 1.239946e+002
8480000000 -6.548547e+000 1.003108e+002 -2.581946e+000 3.833705e+001 -2.489808e+001 5.208268e+001 -8.512801e+000 1.092461e+002
8565000000 -5.323809e+000 8.898337e+001 -2.637939e+000 1.974837e+001 -2.475738e+001 3.089221e+001 -7.533968e+000 9.330276e+001
8650000000 -4.394056e+000 7.702734e+001 -2.534355e+000 -1.961472e+000 -2.482417e+001 1.447768e+001 -6.650895e+000 7.607401e+001
8735000000 -3.734447e+000 6.624685e+001 -2.690526e+000 -1.843734e+001 -2.437430e+001 -5.931114e+000 -6.287081e+000 6.057296e+001
8820000000 -3.420923e+000 5.216991e+001 -2.123119e+000 -3.959296e+001 -2.386872e+001 -2.509344e+001 -6.186922e+000 4.730729e+001
8905000000 -2.920299e+000 3.995987e+001 -1.583074e+000 -5.800673e+001 -2.374112e+001 -4.228043e+001 -5.433050e+000 3.436540e+001
8990000000 -3.129506e+000 2.329581e+001 -1.477828e+000 -8.010230e+001 -2.225863e+001 -6.424612e+001 -5.113863e+000 1.868462e+001
9075000000 -2.840258e+000 6.708809e+000 2.039415e-001 -1.016053e+002 -2.168510e+001 -8.643987e+001 -5.811751e+000 1.670521e+000
9160000000 -3.570081e+000 -1.437090e+001 1.319140e-001 -1.290501e+002 -2.097591e+001 -1.129401e+002 -5.733247e+000 -5.211520e+000
9245000000 -3.749207e+000 -3.946744e+001 9.877430e-001 -1.541342e+002 -1.988848e+001 -1.350246e+002 -5.430009e+000 -1.978151e+001
9330000000 -5.220579e+000 -6.564490e+001 1.635253e+000 1.780124e+002 -1.956891e+001 -1.690239e+002 -5.835367e+000 -3.457215e+001
9415000000 -6.113098e+000 -9.895023e+001 1.517116e+000 1.444385e+002 -1.917690e+001 1.652060e+002 -6.098564e+000 -4.097528e+001
9500000000 -7.297794e+000 -1.298164e+002 1.045518e+000 1.171834e+002 -1.964618e+001 1.340600e+002 -5.529765e+000 -5.432895e+001
9585000000 -7.999492e+000 -1.609998e+002 6.122043e-001 8.626711e+001 -1.983348e+001 1.027857e+002 -6.098810e+000 -7.182515e+001
9670000000 -7.582365e+000 1.735734e+002 -1.430589e-002 5.346914e+001 -2.073099e+001 7.422422e+001 -7.500624e+000 -7.848047e+001
9755000000 -7.555359e+000 1.494571e+002 -2.255245e+000 2.398148e+001 -2.216430e+001 4.222195e+001 -7.148880e+000 -8.093293e+001
9840000000 -6.593023e+000 1.270960e+002 -4.487264e+000 -4.661419e+000 -2.466910e+001 1.344314e+001 -5.918840e+000 -9.702259e+001
9925000000 -6.483518e+000 1.056754e+002 -8.028536e+000 -1.926967e+001 -2.839665e+001 6.397635e-001 -6.499647e+000 -1.135221e+002
10010000000 -6.571111e+000 8.336173e+001 -9.555184e+000 -2.242849e+001 -2.902347e+001 -1.911743e+000 -6.433984e+000 -1.298277e+002
10095000000 -6.848301e+000 6.368150e+001 -8.792221e+000 -3.126703e+001 -2.875013e+001 -1.241789e+001 -6.987267e+000 -1.516518e+002
10180000000 -7.739567e+000 4.255724e+001 -8.850044e+000 -4.899989e+001 -2.864803e+001 -2.825419e+001 -9.431629e+000 -1.699874e+002
10265000000 -8.266368e+000 1.995443e+001 -8.318549e+000 -6.333819e+001 -2.759469e+001 -4.173217e+001 -1.188782e+001 -1.767351e+002
10350000000 -8.860316e+000 -5.155877e+000 -7.834839e+000 -8.176891e+001 -2.747585e+001 -6.256776e+001 -1.351940e+001 1.745087e+002
10435000000 -9.472447e+000 -3.710256e+001 -7.670990e+000 -1.049471e+002 -2.682344e+001 -8.309190e+001 -1.677136e+001 1.654976e+002
10520000000 -8.890202e+000 -6.716187e+001 -7.445567e+000 -1.233702e+002 -2.686129e+001 -1.014590e+002 -2.145227e+001 -1.725316e+002
10605000000 -8.137118e+000 -9.888882e+001 -7.623711e+000 -1.436717e+002 -2.646328e+001 -1.237041e+002 -1.965691e+001 -1.564496e+002
10690000000 -6.591899e+000 -1.301082e+002 -7.288332e+000 -1.667775e+002 -2.642198e+001 -1.430928e+002 -1.943466e+001 -1.585488e+002
10775000000 -5.958268e+000 -1.504823e+002 -7.616028e+000 1.769314e+002 -2.659696e+001 -1.625653e+002 -1.701461e+001 -1.470802e+002
10860000000 -4.710050e+000 -1.734227e+002 -7.399161e+000 1.548668e+002 -2.582093e+001 1.795685e+002 -1.532911e+001 -1.553134e+002
10945000000 -3.993363e+000 1.718421e+002 -6.830887e+000 1.371711e+002 -2.584040e+001 1.575964e+002 -1.545534e+001 -1.583944e+002
11030000000 -3.463270e+000 1.524248e+002 -6.895736e+000 1.121615e+002 -2.527903e+001 1.363007e+002 -1.263554e+001 -1.547080e+002
11115000000 -3.131607e+000 1.414025e+002 -6.845657e+000 9.462138e+001 -2.543712e+001 1.192390e+002 -9.930916e+000 -1.695136e+002
11200000000 -2.843288e+000 1.264907e+002 -6.249438e+000 7.221817e+001 -2.439858e+001 9.281118e+001 -9.475951e+000 1.724579e+002
11285000000 -2.633188e+000 1.151496e+002 -5.888091e+000 5.026784e+001 -2.443540e+001 7.711498e+001 -8.813652e+000 1.655350e+002
11370000000 -2.546960e+000 1.028678e+002 -5.887681e+000 2.846168e+001 -2.378888e+001 5.024781e+001 -7.124363e+000 1.493385e+002
11455000000 -2.427163e+000 8.936253e+001 -5.155193e+000 4.903695e+000 -2.331415e+001 2.988965e+001 -7.066250e+000 1.254266e+002
11540000000 -2.625120e+000 7.845220e+001 -4.825364e+000 -2.012766e+001 -2.317956e+001 3.857131e+000 -8.013573e+000 1.119460e+002
11625000000 -2.968292e+000 6.243727e+001 -4.699961e+000 -4.633761e+001 -2.213877e+001 -1.981917e+001 -7.380510e+000 1.006533e+002
11710000000 -3.372216e+000 4.893586e+001 -4.312525e+000 -7.065239e+001 -2.251799e+001 -4.642632e+001 -6.715737e+000 7.864716e+001
11795000000 -4.817818e+000 3.276109e+001 -4.818015e+000 -1.003796e+002 -2.234674e+001 -7.454637e+001 -8.101271e+000 5.521903e+001
11880000000 -6.209921e+000 1.447307e+001 -4.609303e+000 -1.250329e+002 -2.223729e+001 -9.819185e+001 -9.784384e+000 4.012395e+001
11965000000 -9.011141e+000 1.057113e+000 -5.697338e+000 -1.501980e+002 -2.346243e+001 -1.263390e+002 -9.690317e+000 2.745958e+001
12050000000 -1.257643e+001 -2.211598e+001 -6.307349e+000 -1.771518e+002 -2.371089e+001 -1.474839e+002 -1.034692e+001 -2.147648e+000
12135000000 -1.914199e+001 -4.984354e+001 -7.051409e+000 1.625006e+002 -2.442979e+001 -1.717302e+002 -1.298547e+001 -3.736841e+001
12220000000 -2.958095e+001 1.626595e+002 -8.108413e+000 1.394537e+002 -2.538748e+001 1.665614e+002 -1.502757e+001 -4.027850e+001
12305000000 -2.303980e+001 1.282045e+002 -8.542843e+000 1.218664e+002 -2.572556e+001 1.506614e+002 -1.328314e+001 -6.533711e+001
12390000000 -1.865722e+001 1.291846e+002 -9.108620e+000 1.017353e+002 -2.607539e+001 1.275649e+002 -1.232324e+001 -1.120556e+002
12475000000 -1.452512e+001 1.221085e+002 -9.532351e+000 7.907203e+001 -2.664464e+001 1.079821e+002 -1.386984e+001 -1.572964e+002
12560000000 -1.319174e+001 1.074889e+002 -1.049437e+001 6.256607e+001 -2.744439e+001 9.029312e+001 -1.681979e+001 -1.794460e+002
12645000000 -1.313117e+001 1.096065e+002 -1.079327e+001 4.913506e+001 -2.776675e+001 7.681696e+001 -1.588945e+001 1.721739e+002
12730000000 -1.020113e+001 1.083936e+002 -1.013461e+001 3.136644e+001 -2.715265e+001 6.169237e+001 -1.283060e+001 1.510589e+002
12815000000 -8.482782e+000 9.490099e+001 -9.971229e+000 1.193868e+001 -2.647281e+001 3.998840e+001 -1.164636e+001 1.287161e+002
12900000000 -6.879823e+000 8.382098e+001 -9.463129e+000 -7.148205e+000 -2.642114e+001 2.305681e+001 -1.066042e+001 1.120453e+002
12985000000 -5.749745e+000 6.434926e+001 -9.381071e+000 -2.818546e+001 -2.597160e+001 1.869747e+000 -8.356125e+000 8.850953e+001
13070000000 -5.530914e+000 4.334222e+001 -8.704492e+000 -4.916235e+001 -2.493317e+001 -1.952323e+001 -7.413244e+000 5.974218e+001
13155000000 -5.912454e+000 2.655869e+001 -8.131368e+000 -7.076799e+001 -2.504553e+001 -4.033969e+001 -7.411111e+000 3.566034e+001
13240000000 -5.801802e+000 8.557902e+000 -7.787172e+000 -9.357558e+001 -2.368735e+001 -6.261954e+001 -6.662216e+000 1.491123e+001
13325000000 -5.075558e+000 -1.453055e+001 -6.573404e+000 -1.173262e+002 -2.321753e+001 -8.727562e+001 -6.243858e+000 -6.853506e+000
13410000000 -5.412558e+000 -4.131053e+001 -6.517413e+000 -1.491444e+002 -2.291095e+001 -1.187796e+002 -6.334923e+000 -2.613168e+001
13495000000 -5.082837e+000 -7.268932e+001 -6.446016e+000 -1.772799e+002 -2.240761e+001 -1.422066e+002 -5.463440e+000 -4.411406e+001
13580000000 -5.865561e+000 -9.895193e+001 -6.877921e+000 1.566303e+002 -2.322443e+001 -1.758459e+002 -4.964780e+000 -6.818517e+001
13665000000 -6.091293e+000 -1.265340e+002 -7.725715e+000 1.241928e+002 -2.391436e+001 1.595173e+002 -5.885967e+000 -8.904816e+001
13750000000 -6.293492e+000 -1.442522e+002 -8.838806e+000 1.041437e+002 -2.490730e+001 1.374415e+002 -5.894228e+000 -1.043878e+002
13835000000 -6.140156e+000 -1.622388e+002 -1.010909e+001 8.197219e+001 -2.583676e+001 1.138048e+002 -5.980965e+000 -1.186926e+002
