!Agilent Technologies,E8362C,MY49020251,A.08.50.10
!Agilent E8362C: A.08.50.10
!Date: Wednesday, April 06, 2016 08:53:26
!Correction: S11(Full 2 Port(1,2)) 
!S21(Full 2 Port(1,2)) 
!S12(Full 2 Port(1,2)) 
!S22(Full 2 Port(1,2)) 
!S2P File: Measurements: S11, S21, S12, S22:
# Hz S  dB   R 50
1000000000 -3.259937e-002 2.809218e+001 -7.973280e+001 1.626981e+002 -7.762435e+001 1.526865e+002 -6.384703e-001 1.072493e+002
1085000000 -3.242867e-002 2.772559e+001 -7.639673e+001 1.498156e+002 -7.797350e+001 1.509940e+002 -4.549322e-001 8.636338e+001
1170000000 -6.168040e-002 2.621406e+001 -7.588470e+001 1.270972e+002 -7.334352e+001 1.515202e+002 -4.181772e-001 6.509660e+001
1255000000 -8.930353e-002 2.297836e+001 -7.197270e+001 1.181160e+002 -7.138314e+001 1.163562e+002 -3.835544e-001 4.362551e+001
1340000000 -1.962800e-001 1.697214e+001 -6.942807e+001 1.133880e+002 -6.877913e+001 1.150041e+002 -5.570154e-001 2.267789e+001
1425000000 -5.368177e-001 3.870269e+000 -6.524695e+001 9.268538e+001 -6.594781e+001 9.527034e+001 -5.854259e-001 2.888967e+000
1510000000 -1.202395e+000 -2.455941e+001 -6.055747e+001 5.223145e+001 -6.123004e+001 5.667795e+001 -4.691764e-001 -1.863164e+001
1595000000 -5.871209e+000 -1.087535e+002 -5.681755e+001 3.371579e+000 -6.071424e+001 2.282510e+000 -8.469812e-001 -4.119311e+001
1680000000 -2.674574e+000 1.447229e+002 -5.899857e+001 -4.565964e+001 -5.947333e+001 -4.689048e+001 -1.095183e+000 -5.956592e+001
1765000000 -1.823406e+000 1.041123e+002 -6.478840e+001 -7.287590e+001 -6.421008e+001 -7.743962e+001 -9.707050e-001 -8.043383e+001
1850000000 -7.952678e-001 8.772173e+001 -6.357280e+001 -9.548694e+001 -6.367517e+001 -9.804819e+001 -1.242903e+000 -1.033382e+002
1935000000 -7.323745e-001 7.899470e+001 -6.600854e+001 -1.082723e+002 -6.634434e+001 -1.006069e+002 -1.607703e+000 -1.227139e+002
2020000000 -5.095642e-001 7.229821e+001 -6.631245e+001 -1.272658e+002 -6.589211e+001 -1.277742e+002 -1.580218e+000 -1.435160e+002
2105000000 -4.972812e-001 6.799751e+001 -6.685782e+001 -1.491573e+002 -6.751262e+001 -1.392785e+002 -1.797225e+000 -1.657465e+002
2190000000 -4.733097e-001 6.361599e+001 -6.756806e+001 -1.601223e+002 -6.636567e+001 -1.554100e+002 -1.969642e+000 1.732182e+002
2275000000 -4.624706e-001 5.969001e+001 -6.706155e+001 -1.711246e+002 -6.685909e+001 -1.665363e+002 -2.090521e+000 1.509298e+002
2360000000 -4.999085e-001 5.556649e+001 -6.727985e+001 -1.770022e+002 -6.798374e+001 -1.761147e+002 -2.294337e+000 1.298199e+002
2445000000 -5.561185e-001 5.050076e+001 -6.585639e+001 1.615040e+002 -6.611647e+001 1.694341e+002 -2.181813e+000 1.082481e+002
2530000000 -6.138787e-001 4.538939e+001 -6.588171e+001 1.466940e+002 -6.554292e+001 1.471460e+002 -2.300889e+000 8.378593e+001
2615000000 -8.298871e-001 3.795942e+001 -6.404722e+001 1.299877e+002 -6.492234e+001 1.316269e+002 -2.561973e+000 6.321284e+001
2700000000 -9.243897e-001 2.955119e+001 -6.268724e+001 1.172341e+002 -6.382607e+001 1.155939e+002 -2.311888e+000 4.223665e+001
2785000000 -1.553989e+000 1.705236e+001 -6.250003e+001 9.776592e+001 -6.163329e+001 9.729863e+001 -2.201605e+000 1.750027e+001
2870000000 -1.938370e+000 -9.306012e-001 -6.039353e+001 7.655300e+001 -6.052320e+001 8.401624e+001 -2.496182e+000 -3.205531e+000
2955000000 -3.610292e+000 -2.665521e+001 -5.954121e+001 5.802427e+001 -5.891589e+001 5.212727e+001 -2.252916e+000 -2.317567e+001
3040000000 -4.932173e+000 -7.305937e+001 -5.696766e+001 2.474513e+001 -5.656445e+001 2.701867e+001 -2.093581e+000 -4.579782e+001
3125000000 -5.862406e+000 -1.287406e+002 -5.720332e+001 -5.342564e+000 -5.716523e+001 -9.799220e+000 -2.184146e+000 -6.607409e+001
3210000000 -4.301060e+000 1.798777e+002 -5.834566e+001 -4.279959e+001 -5.672202e+001 -3.813129e+001 -2.029430e+000 -8.594847e+001
3295000000 -2.675697e+000 1.499374e+002 -5.849060e+001 -6.491939e+001 -5.898738e+001 -6.051981e+001 -2.052264e+000 -1.057740e+002
3380000000 -2.019262e+000 1.294438e+002 -5.923684e+001 -8.217563e+001 -5.887520e+001 -8.349865e+001 -1.843750e+000 -1.241488e+002
3465000000 -1.234520e+000 1.141541e+002 -6.078113e+001 -1.046517e+002 -6.012014e+001 -1.018488e+002 -1.565063e+000 -1.448554e+002
3550000000 -1.123489e+000 1.044047e+002 -6.107299e+001 -1.188265e+002 -6.039643e+001 -1.213426e+002 -1.783944e+000 -1.639592e+002
3635000000 -7.917743e-001 9.369621e+001 -6.090547e+001 -1.401034e+002 -6.068155e+001 -1.342205e+002 -1.621645e+000 1.788778e+002
3720000000 -7.058293e-001 8.712685e+001 -6.131790e+001 -1.484638e+002 -6.221072e+001 -1.504541e+002 -1.268008e+000 1.586033e+002
3805000000 -6.519904e-001 7.792655e+001 -6.023048e+001 -1.709159e+002 -6.096942e+001 -1.643128e+002 -1.474580e+000 1.384510e+002
3890000000 -5.264223e-001 7.121262e+001 -6.049122e+001 1.748388e+002 -6.004465e+001 -1.775933e+002 -1.417514e+000 1.202731e+002
3975000000 -6.519716e-001 6.214737e+001 -5.956932e+001 1.634335e+002 -5.942275e+001 1.610197e+002 -1.210825e+000 9.967889e+001
4060000000 -5.880908e-001 5.330036e+001 -5.788277e+001 1.410529e+002 -5.848975e+001 1.397351e+002 -1.291867e+000 7.869099e+001
4145000000 -8.045737e-001 4.248468e+001 -5.781207e+001 1.206370e+002 -5.726469e+001 1.208815e+002 -1.299163e+000 5.744436e+001
4230000000 -1.052130e+000 2.842249e+001 -5.603663e+001 1.030234e+002 -5.566244e+001 1.034154e+002 -1.544194e+000 3.521856e+001
4315000000 -1.405140e+000 1.109115e+001 -5.433540e+001 7.689951e+001 -5.454107e+001 7.976613e+001 -1.746475e+000 1.517282e+001
4400000000 -2.754898e+000 -1.421492e+001 -5.325037e+001 5.142122e+001 -5.221306e+001 4.966707e+001 -1.693297e+000 -7.890607e+000
4485000000 -3.742004e+000 -4.997538e+001 -5.131759e+001 2.029113e+001 -5.199178e+001 2.005190e+001 -2.184386e+000 -3.270135e+001
4570000000 -6.380715e+000 -9.533271e+001 -5.195587e+001 -1.308830e+001 -5.193409e+001 -1.152374e+001 -2.656578e+000 -5.323280e+001
4655000000 -5.742848e+000 -1.489491e+002 -5.172308e+001 -4.325665e+001 -5.103846e+001 -4.207664e+001 -2.588039e+000 -7.605270e+001
4740000000 -5.259441e+000 1.746732e+002 -5.189526e+001 -7.069915e+001 -5.274015e+001 -7.436554e+001 -3.044702e+000 -9.986510e+001
4825000000 -3.964727e+000 1.462408e+002 -5.301148e+001 -1.033475e+002 -5.325632e+001 -9.834589e+001 -3.370781e+000 -1.201382e+002
4910000000 -3.249307e+000 1.293192e+002 -5.376389e+001 -1.204077e+002 -5.368473e+001 -1.198557e+002 -3.429797e+000 -1.419297e+002
4995000000 -2.810904e+000 1.139182e+002 -5.481397e+001 -1.457010e+002 -5.459743e+001 -1.472308e+002 -3.709430e+000 -1.635611e+002
5080000000 -2.454659e+000 1.028651e+002 -5.528313e+001 -1.658428e+002 -5.509085e+001 -1.626255e+002 -3.672136e+000 1.765588e+002
5165000000 -2.281345e+000 9.280100e+001 -5.591822e+001 1.754533e+002 -5.610873e+001 1.717387e+002 -3.645556e+000 1.554462e+002
5250000000 -2.169188e+000 8.295316e+001 -5.634627e+001 1.523655e+002 -5.714978e+001 1.581226e+002 -3.740883e+000 1.361216e+002
5335000000 -2.085454e+000 7.441049e+001 -5.733033e+001 1.418877e+002 -5.703262e+001 1.359135e+002 -3.531276e+000 1.170734e+002
5420000000 -2.204240e+000 6.482824e+001 -5.686404e+001 1.226726e+002 -5.697118e+001 1.240984e+002 -3.562346e+000 9.704133e+001
5505000000 -2.130844e+000 5.529333e+001 -5.670200e+001 1.071923e+002 -5.701365e+001 1.096470e+002 -3.560027e+000 7.872101e+001
5590000000 -2.484613e+000 4.490368e+001 -5.692706e+001 9.246828e+001 -5.646627e+001 8.913306e+001 -3.192211e+000 5.968885e+001
5675000000 -2.512490e+000 3.258902e+001 -5.523034e+001 7.513400e+001 -5.576609e+001 7.303127e+001 -3.199111e+000 3.951751e+001
5760000000 -2.955221e+000 1.937489e+001 -5.474910e+001 5.282029e+001 -5.490260e+001 5.576461e+001 -3.095820e+000 2.215754e+001
5845000000 -3.259178e+000 7.940929e-001 -5.402353e+001 3.378545e+001 -5.356505e+001 3.593484e+001 -2.646065e+000 3.077919e+000
5930000000 -3.741006e+000 -1.940828e+001 -5.206447e+001 1.421028e+001 -5.238323e+001 1.172754e+001 -2.591359e+000 -1.777936e+001
6015000000 -4.224420e+000 -4.805483e+001 -5.110399e+001 -1.344026e+001 -5.057892e+001 -1.147439e+001 -2.445316e+000 -3.576737e+001
6100000000 -4.049466e+000 -8.072656e+001 -4.990971e+001 -3.833372e+001 -4.978453e+001 -4.020440e+001 -1.980312e+000 -5.623857e+001
6185000000 -3.855904e+000 -1.169606e+002 -4.826114e+001 -7.052074e+001 -4.883138e+001 -7.421827e+001 -1.950173e+000 -7.775940e+001
6270000000 -2.765364e+000 -1.530607e+002 -4.849769e+001 -1.057885e+002 -4.865364e+001 -1.034749e+002 -1.699212e+000 -9.815903e+001
6355000000 -2.312068e+000 1.794384e+002 -4.887477e+001 -1.326064e+002 -4.843855e+001 -1.378296e+002 -1.514066e+000 -1.220557e+002
6440000000 -1.751664e+000 1.527513e+002 -4.873253e+001 -1.681474e+002 -4.909281e+001 -1.657684e+002 -1.731930e+000 -1.427490e+002
6525000000 -1.609476e+000 1.343159e+002 -4.985415e+001 1.638088e+002 -4.990916e+001 1.645373e+002 -1.520321e+000 -1.645848e+002
6610000000 -1.788467e+000 1.161645e+002 -5.072393e+001 1.380439e+002 -5.025981e+001 1.336013e+002 -1.689878e+000 1.690866e+002
6695000000 -2.008072e+000 1.017496e+002 -5.112192e+001 1.078110e+002 -5.164309e+001 1.109431e+002 -2.274843e+000 1.485956e+002
6780000000 -2.675977e+000 8.870100e+001 -5.260170e+001 8.401160e+001 -5.194249e+001 8.178565e+001 -2.395125e+000 1.261966e+002
6865000000 -3.441038e+000 7.676170e+001 -5.277871e+001 5.792664e+001 -5.328315e+001 5.775157e+001 -2.885016e+000 9.978853e+001
6950000000 -4.492789e+000 6.712600e+001 -5.401782e+001 3.090102e+001 -5.402161e+001 2.985315e+001 -3.499165e+000 7.782101e+001
7035000000 -5.869612e+000 5.833786e+001 -5.510382e+001 5.277884e+000 -5.512952e+001 5.397780e+000 -3.912651e+000 5.433161e+001
7120000000 -7.429169e+000 5.228365e+001 -5.676335e+001 -2.040574e+001 -5.659808e+001 -2.012435e+001 -4.650997e+000 3.051187e+001
7205000000 -9.331564e+000 4.919331e+001 -5.781679e+001 -4.732230e+001 -5.836213e+001 -4.935693e+001 -5.088448e+000 7.199393e+000
7290000000 -1.135229e+001 4.991963e+001 -5.983879e+001 -7.069774e+001 -5.928397e+001 -6.827081e+001 -5.519746e+000 -1.873455e+001
7375000000 -1.331362e+001 5.584827e+001 -6.168475e+001 -9.492730e+001 -6.098978e+001 -9.768422e+001 -6.196342e+000 -4.235609e+001
7460000000 -1.468681e+001 6.665977e+001 -6.507813e+001 -1.254709e+002 -6.420138e+001 -1.334655e+002 -6.183085e+000 -6.532090e+001
7545000000 -1.524783e+001 8.062540e+001 -6.970891e+001 -1.542888e+002 -7.064572e+001 -1.371685e+002 -6.073932e+000 -9.008572e+001
7630000000 -1.510858e+001 9.350052e+001 -8.380931e+001 -1.647114e+002 -8.767102e+001 -7.582086e+001 -6.123709e+000 -1.110548e+002
7715000000 -1.407504e+001 1.054171e+002 -7.208269e+001 -5.083422e+001 -7.325599e+001 -3.844096e+001 -5.616078e+000 -1.326463e+002
7800000000 -1.254220e+001 1.143458e+002 -6.816895e+001 -5.940197e+001 -7.059091e+001 -6.985362e+001 -5.395415e+000 -1.549890e+002
7885000000 -1.054229e+001 1.185159e+002 -6.606400e+001 -9.227513e+001 -6.514902e+001 -7.795980e+001 -5.154696e+000 -1.727578e+002
7970000000 -8.493383e+000 1.183382e+002 -6.231292e+001 -1.061443e+002 -6.310481e+001 -1.077395e+002 -4.126226e+000 1.681473e+002
8055000000 -6.542408e+000 1.129261e+002 -6.167916e+001 -1.326702e+002 -6.072470e+001 -1.327583e+002 -3.837972e+000 1.470505e+002
8140000000 -4.986955e+000 1.060404e+002 -5.989860e+001 -1.569265e+002 -6.092895e+001 -1.557159e+002 -3.731610e+000 1.324335e+002
8225000000 -3.823325e+000 9.542064e+001 -6.032201e+001 -1.763355e+002 -5.952456e+001 -1.761225e+002 -2.898881e+000 1.167139e+002
8310000000 -2.739336e+000 8.545394e+001 -5.904869e+001 1.590417e+002 -5.972735e+001 1.601686e+002 -2.506448e+000 9.836275e+001
8395000000 -2.288748e+000 7.356776e+001 -5.883580e+001 1.438099e+002 -5.829270e+001 1.399971e+002 -2.294627e+000 8.212465e+001
8480000000 -1.608540e+000 6.090718e+001 -5.821528e+001 1.263800e+002 -5.759668e+001 1.253298e+002 -1.751514e+000 6.411813e+001
8565000000 -1.368338e+000 4.878291e+001 -5.675394e+001 1.048358e+002 -5.691317e+001 1.008825e+002 -1.662624e+000 4.786586e+001
8650000000 -1.280477e+000 3.222945e+001 -5.576654e+001 8.084061e+001 -5.513712e+001 8.708277e+001 -1.205245e+000 3.167675e+001
8735000000 -8.726363e-001 1.731795e+001 -5.412508e+001 6.407210e+001 -5.396811e+001 6.192176e+001 -9.033150e-001 8.241652e+000
8820000000 -1.645400e+000 -3.098946e+000 -5.249534e+001 3.690253e+001 -5.264499e+001 3.614628e+001 -1.788747e+000 -1.154116e+001
8905000000 -1.274213e+000 -2.783291e+001 -5.035121e+001 8.676157e+000 -5.045348e+001 1.439882e+001 -1.595232e+000 -2.828802e+001
8990000000 -3.147452e+000 -5.185749e+001 -4.968862e+001 -2.008409e+001 -4.961690e+001 -2.387207e+001 -1.846023e+000 -5.600193e+001
9075000000 -3.719739e+000 -8.764665e+001 -4.857113e+001 -6.157844e+001 -4.905502e+001 -5.868573e+001 -3.727219e+000 -8.595783e+001
9160000000 -5.583166e+000 -1.161498e+002 -4.978273e+001 -8.899747e+001 -4.951215e+001 -9.159536e+001 -5.426671e+000 -1.111546e+002
9245000000 -6.385283e+000 -1.533240e+002 -5.029087e+001 -1.252556e+002 -5.030773e+001 -1.244059e+002 -7.796140e+000 -1.422663e+002
9330000000 -6.770344e+000 1.775099e+002 -5.150451e+001 -1.541848e+002 -5.205470e+001 -1.542836e+002 -9.763723e+000 1.755799e+002
9415000000 -6.814913e+000 1.504292e+002 -5.323739e+001 -1.784885e+002 -5.309260e+001 1.776129e+002 -1.073804e+001 1.191469e+002
9500000000 -6.531309e+000 1.284746e+002 -5.458760e+001 1.531054e+002 -5.468703e+001 1.559115e+002 -1.072753e+001 6.532153e+001
9585000000 -6.347991e+000 1.101659e+002 -5.634278e+001 1.333329e+002 -5.611221e+001 1.346119e+002 -8.883339e+000 3.226136e+001
9670000000 -6.128167e+000 9.269113e+001 -5.809816e+001 1.142989e+002 -5.792751e+001 1.102715e+002 -6.934095e+000 5.591711e+000
9755000000 -5.984104e+000 7.683500e+001 -5.996811e+001 9.252467e+001 -5.968136e+001 9.289865e+001 -5.454556e+000 -2.305729e+001
9840000000 -6.136469e+000 6.073454e+001 -6.077223e+001 8.677917e+001 -6.051228e+001 7.452277e+001 -4.611418e+000 -5.350585e+001
9925000000 -6.022110e+000 4.421827e+001 -6.240131e+001 5.947065e+001 -6.364839e+001 7.042307e+001 -5.699110e+000 -7.596822e+001
10010000000 -6.319928e+000 2.759617e+001 -6.703056e+001 6.307136e+001 -6.557807e+001 5.538816e+001 -5.922890e+000 -9.602458e+001
10095000000 -6.226237e+000 5.701277e+000 -6.669047e+001 7.376495e+001 -6.538599e+001 7.564696e+001 -6.854364e+000 -1.229440e+002
10180000000 -6.642944e+000 -1.356276e+001 -6.356564e+001 7.283776e+001 -6.455679e+001 6.827347e+001 -1.055741e+001 -1.415691e+002
10265000000 -6.358003e+000 -3.977880e+001 -6.078117e+001 6.389883e+001 -6.166671e+001 5.767048e+001 -1.429289e+001 -1.388063e+002
10350000000 -5.721241e+000 -6.427094e+001 -5.881191e+001 4.094335e+001 -6.000517e+001 4.394567e+001 -1.633299e+001 -1.279609e+002
10435000000 -5.668840e+000 -9.351552e+001 -5.775225e+001 2.189512e+001 -5.718089e+001 1.641298e+001 -1.628839e+001 -1.028150e+002
10520000000 -4.408591e+000 -1.165023e+002 -5.541033e+001 -2.266233e+000 -5.612649e+001 1.261369e+000 -1.205461e+001 -9.408144e+001
10605000000 -3.790446e+000 -1.391672e+002 -5.479364e+001 -1.934100e+001 -5.454446e+001 -2.219616e+001 -9.386336e+000 -1.052464e+002
10690000000 -2.904157e+000 -1.647522e+002 -5.354786e+001 -4.530506e+001 -5.368215e+001 -4.627701e+001 -7.694238e+000 -1.201545e+002
10775000000 -2.574313e+000 -1.791692e+002 -5.268640e+001 -6.689299e+001 -5.324305e+001 -7.008656e+001 -5.695406e+000 -1.319046e+002
10860000000 -2.200816e+000 1.598417e+002 -5.243683e+001 -9.374983e+001 -5.195076e+001 -9.342549e+001 -3.963501e+000 -1.497594e+002
10945000000 -1.733488e+000 1.475537e+002 -5.080777e+001 -1.180824e+002 -5.145940e+001 -1.214758e+002 -3.178203e+000 -1.743903e+002
11030000000 -1.902482e+000 1.301292e+002 -5.155444e+001 -1.470484e+002 -5.134151e+001 -1.451982e+002 -2.696567e+000 1.714208e+002
11115000000 -1.606539e+000 1.190015e+002 -5.135216e+001 -1.651581e+002 -5.101438e+001 -1.629294e+002 -1.877747e+000 1.511037e+002
11200000000 -1.811081e+000 1.043278e+002 -5.081398e+001 1.657452e+002 -5.115273e+001 1.621119e+002 -2.252921e+000 1.234293e+002
11285000000 -1.769188e+000 9.103217e+001 -5.093816e+001 1.427764e+002 -5.102075e+001 1.471134e+002 -3.190515e+000 1.073576e+002
11370000000 -2.227496e+000 7.679099e+001 -5.129085e+001 1.259704e+002 -5.104155e+001 1.200476e+002 -3.374538e+000 9.132824e+001
11455000000 -2.897469e+000 6.091986e+001 -5.122850e+001 9.987367e+001 -5.125166e+001 9.912873e+001 -3.960308e+000 6.848859e+001
11540000000 -3.883500e+000 4.715843e+001 -5.173442e+001 7.787856e+001 -5.215869e+001 7.692096e+001 -5.138258e+000 4.586251e+001
11625000000 -5.549092e+000 3.097559e+001 -5.207862e+001 5.854641e+001 -5.186066e+001 5.487498e+001 -6.469018e+000 2.877535e+001
11710000000 -7.388758e+000 1.502598e+001 -5.208080e+001 3.652412e+001 -5.263519e+001 3.601081e+001 -6.846396e+000 1.321726e+001
11795000000 -1.077420e+001 2.681800e+000 -5.329072e+001 1.842964e+001 -5.292237e+001 1.832190e+001 -7.087773e+000 -1.561158e+001
11880000000 -1.413422e+001 -2.077968e+001 -5.233414e+001 -5.711036e-001 -5.266827e+001 -1.796146e+000 -8.917411e+000 -5.066632e+001
11965000000 -2.098861e+001 -5.063850e+001 -5.300266e+001 -1.776428e+001 -5.323981e+001 -1.571501e+001 -1.139586e+001 -5.739494e+001
12050000000 -2.220461e+001 -1.581149e+002 -5.288968e+001 -3.412684e+001 -5.252267e+001 -3.328205e+001 -9.226369e+000 -8.049429e+001
12135000000 -1.562114e+001 1.571029e+002 -5.207837e+001 -4.926435e+001 -5.277888e+001 -5.473969e+001 -7.859840e+000 -1.180180e+002
12220000000 -1.259489e+001 1.349052e+002 -5.269742e+001 -6.696585e+001 -5.293726e+001 -7.035685e+001 -9.313856e+000 -1.463956e+002
12305000000 -1.026702e+001 1.166375e+002 -5.272964e+001 -8.582750e+001 -5.226488e+001 -8.758177e+001 -8.944566e+000 -1.624523e+002
12390000000 -1.024482e+001 1.054759e+002 -5.223458e+001 -9.954317e+001 -5.218681e+001 -1.005070e+002 -7.578071e+000 1.746186e+002
12475000000 -9.207285e+000 9.705643e+001 -5.194772e+001 -1.176869e+002 -5.160292e+001 -1.152019e+002 -7.167307e+000 1.524451e+002
12560000000 -9.098661e+000 8.550657e+001 -5.097807e+001 -1.311109e+002 -5.074276e+001 -1.315179e+002 -6.618800e+000 1.265324e+002
12645000000 -9.506312e+000 8.545074e+001 -4.997520e+001 -1.422206e+002 -5.038090e+001 -1.441919e+002 -6.885919e+000 1.097468e+002
12730000000 -7.803690e+000 8.128666e+001 -4.818999e+001 -1.603171e+002 -4.824300e+001 -1.580235e+002 -6.258445e+000 9.789557e+001
12815000000 -6.956576e+000 7.090094e+001 -4.627602e+001 1.796757e+002 -4.622475e+001 1.751465e+002 -4.813578e+000 7.689999e+001
12900000000 -5.501867e+000 6.025406e+001 -4.491306e+001 1.520602e+002 -4.526429e+001 1.563351e+002 -4.466660e+000 5.771238e+001
12985000000 -4.557816e+000 4.132147e+001 -4.465286e+001 1.325438e+002 -4.440371e+001 1.319059e+002 -3.994845e+000 3.878311e+001
13070000000 -4.358766e+000 1.921572e+001 -4.276792e+001 1.090296e+002 -4.258265e+001 1.063825e+002 -3.024358e+000 1.530751e+001
13155000000 -4.286026e+000 -9.848619e-001 -4.139599e+001 8.000595e+001 -4.185463e+001 8.366860e+001 -3.061422e+000 -9.289157e+000
13240000000 -4.452838e+000 -2.530382e+001 -4.067661e+001 5.433509e+001 -3.995266e+001 5.193993e+001 -2.666274e+000 -2.958253e+001
13325000000 -4.006388e+000 -5.361776e+001 -3.940837e+001 2.332457e+001 -3.986200e+001 2.309498e+001 -3.198370e+000 -5.211337e+001
13410000000 -4.796124e+000 -8.167200e+001 -4.004081e+001 -8.298176e+000 -4.014363e+001 -8.608974e+000 -3.813360e+000 -7.157822e+001
13495000000 -4.926598e+000 -1.141375e+002 -3.985620e+001 -3.595226e+001 -3.930973e+001 -3.450021e+001 -3.501962e+000 -8.996353e+001
13580000000 -5.830900e+000 -1.375266e+002 -4.012655e+001 -6.249277e+001 -4.060135e+001 -6.571638e+001 -3.985655e+000 -1.127036e+002
13665000000 -6.458179e+000 -1.611052e+002 -4.115797e+001 -9.056377e+001 -4.100782e+001 -8.865892e+001 -5.227790e+000 -1.342248e+002
13750000000 -6.819396e+000 -1.761755e+002 -4.136790e+001 -1.084404e+002 -4.132574e+001 -1.095278e+002 -6.323448e+000 -1.514066e+002
