!Mini-Circuits Laboratory
!S-Parameters
!Model: PSA4-5043+
!Run / Lot / Date Code: QM1149032 / NA / 1149
!Fixture: ON TB-471+
!Network Analyzer: PNA-X N5242A - 423 4 ports;  Serial number: 71013
!Date: 3/2/2012 at 1:22:55 PM
!S/N: Unit# 1
!Tested with: AT 25C, vdd= 3.3V
!
# Hz  S  dB  R  50
!Frequency    S11 dB        S11 Deg       S21 dB        S21 Deg       S12 dB        S12 Deg       S22 dB        S22 Deg       
10000000      -1.7399230    -22.0214691   27.0934792    168.9886017   -35.7178993   48.0330200    -5.7068610    -27.8636608   
15000000      -2.8171101    -26.7271004   26.4690609    167.4754944   -31.9230804   49.7289696    -6.9669528    -34.7055588   
20000000      -3.9270821    -31.4843693   26.0611591    165.2666016   -30.6105404   39.0049400    -8.5060368    -41.8741112   
25000000      -4.8973398    -34.0931091   25.6860504    164.5760956   -29.8129692   33.8118401    -9.8357983    -46.7283401   
30000000      -5.6060662    -34.5599899   25.3486900    164.9022064   -29.4836407   29.2145805    -10.7995300   -48.0999413   
35000000      -6.2157040    -34.8222008   25.1106892    165.0921021   -29.1532993   26.4463100    -11.7546997   -49.3176804   
40000000      -6.7630649    -35.0280304   24.9336605    165.0789948   -28.9516296   24.2275696    -12.6843395   -50.1304893   
45000000      -7.2350392    -34.9316483   24.7994709    165.0677032   -28.7699394   21.6105995    -13.5572300   -50.1896210   
50000000      -7.6936479    -35.7852287   24.6872501    165.0442047   -28.8757992   26.5059395    -14.5797901   -51.9881592   
55000000      -7.8886170    -34.2047997   24.5725708    165.2677002   -28.5854092   19.6884594    -14.9436703   -48.8950195   
60000000      -8.1409674    -34.1143684   24.4911499    165.1914063   -28.1983891   19.3550396    -15.6381598   -48.0502281   
65000000      -8.3674440    -34.0544701   24.4424191    164.9467926   -28.5075703   17.8361607    -16.0687294   -47.5083809   
70000000      -8.5378761    -33.8846207   24.3877392    164.7693939   -28.4554195   17.6134605    -16.5370903   -46.5930595   
75000000      -8.7003870    -33.6955910   24.3398209    164.5289001   -28.3915596   16.8788109    -16.9974499   -45.3812103   
80000000      -8.8258533    -33.7338791   24.2987194    164.2548065   -28.3943405   16.0186806    -17.3603191   -44.0401688   
85000000      -8.9424133    -33.7686386   24.2613392    163.9624023   -28.3822803   15.8476400    -17.7412491   -42.6932297   
90000000      -9.0502129    -33.9078903   24.2253208    163.6224060   -28.3248291   15.6569204    -18.0484200   -41.5645905   
95000000      -9.1403971    -34.0799103   24.1936207    163.2716064   -28.3190994   15.4264202    -18.3537998   -40.0986099   
100000000     -9.1978970    -34.2779007   24.1702709    162.8713989   -28.3084908   15.6901703    -18.5778694   -38.8102417   
105000000     -9.2769089    -34.5773811   24.1373806    162.4777985   -28.2927494   15.2821703    -18.7960091   -37.6520386   
110000000     -9.3249989    -34.8101807   24.1207199    162.0350952   -28.2559795   14.8426199    -18.9332409   -36.4976311   
115000000     -9.3900347    -35.2713089   24.0934296    161.6051941   -28.2820702   15.3407602    -19.2010193   -35.1344910   
120000000     -9.4338503    -35.6169014   24.0640297    161.1831970   -28.3139992   14.9746904    -19.3146706   -33.9733315   
125000000     -9.4954329    -36.0128708   24.0395508    160.7149048   -28.2543106   15.4568300    -19.4674397   -32.8220215   
130000000     -9.5568628    -36.4573097   24.0154591    160.2888031   -28.2097397   15.0009403    -19.6476097   -31.5814800   
135000000     -9.5842571    -36.9179001   23.9901791    159.8311005   -28.1932297   15.3989201    -19.7404995   -30.4914494   
140000000     -9.6186771    -37.3374901   23.9655895    159.3840027   -28.1756592   15.2096996    -19.8412495   -29.1648293   
145000000     -9.6562147    -37.9102287   23.9393902    158.9022064   -28.1903706   15.5009804    -19.9183197   -28.3555603   
150000000     -9.7172842    -38.6374283   23.9256706    158.4306030   -28.2488899   14.9351797    -20.0811596   -27.4585495   
155000000     -9.7274075    -39.0101700   23.8964195    157.9615021   -28.1462803   15.6865196    -20.1098900   -26.1192303   
160000000     -9.7682848    -39.5825310   23.8705502    157.4730072   -28.1624794   15.7891598    -20.2084904   -25.0859108   
165000000     -9.7859564    -40.0976715   23.8414803    156.9826050   -28.1056404   16.2517605    -20.2440891   -24.0976791   
170000000     -9.8140421    -40.6320305   23.8202705    156.5209961   -28.0277996   16.6368599    -20.2798996   -23.1672306   
175000000     -9.8478661    -41.2601700   23.7947998    156.0319977   -28.0912399   16.5437107    -20.3218708   -22.5282097   
180000000     -9.8720493    -41.8538704   23.7670403    155.5617065   -28.0971298   16.5307999    -20.3780098   -21.5774994   
185000000     -9.9000244    -42.5384293   23.7396793    155.0670013   -28.0522099   16.7254295    -20.3903198   -20.7616291   
190000000     -9.9152365    -43.1287308   23.7146893    154.5536041   -27.9419594   16.6990395    -20.3769398   -20.1064091   
195000000     -9.9462528    -43.7791595   23.6850109    154.0679932   -27.9737396   17.1406002    -20.4069309   -19.3174000   
200000000     -9.9673176    -44.4648094   23.6593094    153.5867004   -27.9516296   17.2085800    -20.4181995   -18.9785900   
205000000     -9.9865246    -45.0588989   23.6260395    153.0747070   -27.9193001   17.7074299    -20.3935299   -18.3268509   
210000000     -10.0165796   -45.5822411   23.5913200    152.6049042   -28.0098305   17.6162605    -20.4170609   -17.5490494   
215000000     -10.0287199   -46.3654785   23.5639305    152.1016998   -27.9840393   17.7728100    -20.4001007   -16.8114796   
220000000     -10.0516596   -47.0484695   23.5397797    151.6246948   -27.9063702   17.8481007    -20.3936596   -16.8267193   
225000000     -10.0614796   -47.6217194   23.5071697    151.1215973   -27.9331093   18.8181000    -20.3666401   -15.9529696   
230000000     -10.0995598   -48.3323212   23.4764709    150.6186981   -27.8833103   18.5042000    -20.3969994   -15.4814796   
235000000     -10.1034899   -49.0243607   23.4470692    150.1407013   -27.8535309   18.8652496    -20.3491402   -15.0557499   
240000000     -10.1382198   -49.6814613   23.4144592    149.6289978   -27.8848209   19.1301708    -20.3869209   -14.4154196   
245000000     -10.1563301   -50.4098396   23.3894405    149.1753998   -27.8526897   19.7327900    -20.3330898   -14.3663797   
250000000     -10.1747198   -51.2032509   23.3561401    148.6999969   -27.7709007   19.5369396    -20.3329105   -14.4591599   
255000000     -10.1819696   -51.7000389   23.3246307    148.1759949   -27.7881794   20.4418201    -20.2216797   -13.3976202   
260000000     -10.2054396   -52.5125618   23.2969494    147.6849976   -27.7670002   20.4054508    -20.2759800   -13.8375502   
265000000     -10.2363701   -53.0107918   23.2630291    147.1864929   -27.7500401   21.0242405    -20.3130302   -12.6922598   
270000000     -10.2330503   -53.8472595   23.2314491    146.7169037   -27.7282906   20.2890491    -20.2252903   -13.1063805   
275000000     -10.2763996   -54.4257011   23.1979809    146.2776947   -27.6846199   20.2818108    -20.1990891   -12.0390596   
280000000     -10.3031702   -55.2333794   23.1654606    145.7839050   -27.6534500   20.6465397    -20.1763992   -12.3775301   
285000000     -10.3131800   -55.8917503   23.1337204    145.3101959   -27.6722603   20.1051292    -20.1464996   -11.8757000   
290000000     -10.3245296   -56.4273682   23.1013298    144.8390961   -27.6471901   21.2598801    -20.1157703   -11.8232203   
295000000     -10.3789501   -57.3080292   23.0650597    144.3981018   -27.6005402   21.5949993    -20.1237392   -11.3658504   
300000000     -10.3788004   -57.7574692   23.0344906    143.9268951   -27.5764408   21.5883904    -20.0485706   -11.0654497   
305000000     -10.3951902   -58.4355316   22.9957600    143.4470062   -27.5748405   22.3156395    -20.0339203   -10.9453497   
310000000     -10.4145298   -59.1379395   22.9671307    143.0009003   -27.5975800   22.5471497    -20.0458508   -10.8807602   
315000000     -10.4086304   -59.8893700   22.9311199    142.5455017   -27.5097103   22.8926201    -19.9909592   -11.0929203   
320000000     -10.4537802   -60.4827309   22.8931999    142.0838928   -27.5746403   22.7584991    -19.9922199   -11.2218800   
325000000     -10.4649496   -61.1502991   22.8598099    141.6513062   -27.5306797   22.5716305    -19.9332104   -10.9701996   
330000000     -10.4794102   -61.9387207   22.8252296    141.1947021   -27.4375496   23.0010605    -19.9298401   -10.8181200   
335000000     -10.4922104   -62.6487503   22.7875500    140.7189026   -27.4105091   23.7801094    -19.9014893   -10.6626902   
340000000     -10.5059004   -63.1999092   22.7535000    140.2911072   -27.4065399   23.5624504    -19.8266697   -10.5499496   
345000000     -10.5444603   -63.8809700   22.7140808    139.8356018   -27.4265308   23.4902496    -19.8340492   -10.2622604   
350000000     -10.5720396   -64.4965897   22.6815395    139.4266052   -27.3311291   23.3848209    -19.7569504   -10.2021303   
355000000     -10.5814104   -65.1328506   22.6478004    138.9781952   -27.3983593   24.8077507    -19.7510700   -10.3233700   
360000000     -10.5991697   -65.8056183   22.6088200    138.5137024   -27.3599300   24.0904503    -19.7598000   -10.2522402   
365000000     -10.6134701   -66.4384537   22.5716705    138.1047058   -27.2792892   24.2884808    -19.7139893   -10.1307802   
370000000     -10.6354198   -67.2873764   22.5392704    137.6710052   -27.2209091   25.2942600    -19.7076797   -10.7056799   
375000000     -10.6500101   -67.6999969   22.5002995    137.2415009   -27.2964592   25.2250710    -19.6152897   -10.0849199   
380000000     -10.6684999   -68.5095673   22.4609108    136.8103943   -27.2054691   25.2726097    -19.6250801   -10.2481604   
385000000     -10.6810598   -69.1407928   22.4261608    136.3912964   -27.2003708   25.9396400    -19.5372009   -10.6155195   
390000000     -10.7067499   -69.6391983   22.3852692    135.9759979   -27.2087402   25.9725704    -19.5331001   -10.3908596   
395000000     -10.7234201   -70.3077927   22.3526402    135.5605011   -27.1347904   26.2406292    -19.5006599   -10.3211298   
400000000     -10.7200003   -70.9430771   22.3155403    135.0928955   -27.1602192   26.8309898    -19.4682693   -10.5656300   
405000000     -10.7376699   -71.6017990   22.2785892    134.7169952   -27.1613007   26.6592407    -19.3694706   -10.7947998   
410000000     -10.7588396   -72.2209167   22.2424393    134.2855988   -27.0850792   26.5127201    -19.4037991   -10.8248196   
415000000     -10.8024397   -72.8190689   22.2000809    133.9069061   -27.0317898   27.0741501    -19.4087200   -10.8565502   
420000000     -10.8127604   -73.4315109   22.1668892    133.4812927   -26.9985409   27.6229992    -19.3906593   -10.5452299   
425000000     -10.8262100   -74.1374435   22.1242199    133.0944977   -26.9640808   27.4699497    -19.3688507   -10.7980900   
430000000     -10.8405399   -74.8533401   22.0870895    132.6909027   -26.9358807   27.9629097    -19.2552891   -11.2510004   
435000000     -10.8552904   -75.3283463   22.0472393    132.2725983   -26.9629307   27.8770294    -19.2385101   -11.1323500   
440000000     -10.8569002   -75.9229965   22.0136795    131.8977051   -26.8838806   28.0346699    -19.2117691   -10.9514904   
445000000     -10.8959703   -76.6027985   21.9694595    131.5021973   -26.9106293   28.3026791    -19.2401695   -11.2413702   
450000000     -10.9116001   -77.0247116   21.9337292    131.0941010   -26.8061905   28.8580894    -19.1702499   -11.1734896   
455000000     -10.9137497   -77.7969666   21.8937302    130.7241058   -26.8204403   28.7576199    -19.2066498   -11.5795698   
460000000     -10.9306202   -78.4801407   21.8570309    130.3316956   -26.8254204   29.0137596    -19.1539898   -11.3817701   
465000000     -10.9513903   -78.9752197   21.8188801    129.9756927   -26.7760506   29.5984192    -19.0979996   -11.5883598   
470000000     -10.9655504   -79.6071472   21.7787094    129.5843964   -26.7309303   29.5729408    -19.0513000   -11.5677605   
475000000     -10.9813404   -80.1622467   21.7404900    129.2024994   -26.7161293   29.8754005    -19.0860291   -11.9161797   
480000000     -11.0000401   -80.7521133   21.7026997    128.8170013   -26.7006607   29.9655704    -19.0443096   -11.8655500   
485000000     -11.0258303   -81.3467789   21.6618690    128.4454041   -26.6364193   30.4631596    -19.0196991   -11.7366896   
490000000     -11.0208101   -82.0224228   21.6241302    128.0879974   -26.6612892   30.5477695    -18.9941998   -11.8333397   
495000000     -11.0442104   -82.5381165   21.5867100    127.6931992   -26.6239796   30.2711201    -18.9592991   -12.0230303   
500000000     -11.0480604   -83.0999908   21.5484104    127.3277969   -26.5667191   30.5184307    -18.9290295   -11.9567499   
505000000     -11.0677404   -83.6481628   21.5084095    126.9573975   -26.5090904   30.7963409    -18.9106293   -12.0293102   
510000000     -11.0866098   -84.1932526   21.4690399    126.6076965   -26.4833508   31.0820904    -18.8764992   -12.5018196   
515000000     -11.0986300   -84.8445206   21.4284706    126.2266998   -26.5005093   31.4045696    -18.8684502   -12.1796904   
520000000     -11.1148596   -85.4040527   21.3887806    125.8628998   -26.4942207   31.4909000    -18.8463402   -12.4491100   
525000000     -11.1329498   -86.0378265   21.3500996    125.4850006   -26.3941002   31.7494297    -18.8708591   -12.6242704   
530000000     -11.1805696   -86.5856781   21.3097191    125.2014008   -26.3625507   31.7547207    -18.8239307   -12.1192598   
535000000     -11.1636896   -87.0363464   21.2767906    124.8382034   -26.3574791   31.6986198    -18.7454796   -12.8264904   
540000000     -11.1884899   -87.6019211   21.2332592    124.4876022   -26.3375702   31.8785000    -18.7275906   -12.8324299   
545000000     -11.1753397   -88.0625534   21.1974792    124.1483002   -26.3205109   32.3180389    -18.6735306   -12.8710003   
550000000     -11.2044201   -88.6897430   21.1562595    123.8106003   -26.2571907   32.7298317    -18.7107906   -13.0434799   
555000000     -11.2338400   -89.3387222   21.1206703    123.4773026   -26.2394600   32.6868401    -18.6751194   -12.9221096   
560000000     -11.2216501   -89.8593292   21.0821209    123.1356964   -26.2140903   32.5857086    -18.6348591   -13.4793396   
565000000     -11.2563105   -90.4431305   21.0369205    122.7776031   -26.1751099   33.1808510    -18.6999302   -13.3381205   
570000000     -11.2562799   -91.0465698   21.0009098    122.4346008   -26.1439495   32.9503708    -18.6622696   -13.5910301   
575000000     -11.2823496   -91.5474777   20.9620495    122.1091995   -26.1182098   33.7068710    -18.6398392   -13.3571196   
580000000     -11.2975397   -91.9951630   20.9249992    121.7886963   -26.1105804   33.6555901    -18.5981693   -13.4835596   
585000000     -11.3101797   -92.5599670   20.8846798    121.4550018   -26.0477600   33.5811195    -18.6156693   -13.6142597   
590000000     -11.3109198   -93.1149673   20.8459797    121.1149979   -26.0011196   33.8153381    -18.5925102   -13.9863396   
595000000     -11.3350801   -93.5307236   20.8089294    120.7984009   -25.9554806   33.9310417    -18.5688496   -13.9752197   
600000000     -11.3528099   -94.2149963   20.7722797    120.4699020   -25.9673595   34.1104507    -18.5842094   -14.1045504   
605000000     -11.3646898   -94.6706467   20.7325191    120.1573029   -25.9596500   34.4619904    -18.5345898   -14.2606001   
610000000     -11.3941402   -95.2517014   20.6900005    119.8087997   -25.8823109   34.8693810    -18.5488300   -13.9661398   
615000000     -11.4331903   -95.7903671   20.6450005    119.4616013   -25.8283195   34.6358910    -18.4997406   -14.0141602   
620000000     -11.4424496   -96.1481018   20.6033001    119.1829987   -25.8525791   34.7106094    -18.4314003   -14.2476902   
625000000     -11.4531002   -96.5395508   20.5688992    118.9124985   -25.8088799   34.9655304    -18.4056301   -14.4606895   
630000000     -11.4580402   -97.1432114   20.5365906    118.5902023   -25.7407703   35.3362007    -18.4180298   -14.7363796   
635000000     -11.4807701   -97.7826004   20.4962807    118.2942963   -25.7340107   35.6415787    -18.4375992   -14.6766195   
640000000     -11.4874802   -98.2346268   20.4567509    117.9527969   -25.7583599   35.3470688    -18.4513493   -14.9917898   
645000000     -11.5016098   -98.6602402   20.4246407    117.6605988   -25.6711502   35.9508591    -18.4153500   -15.0877705   
650000000     -11.5199404   -99.3668518   20.3834991    117.3264999   -25.6533108   35.6477585    -18.3801899   -15.1979504   
655000000     -11.5131598   -99.6501617   20.3437901    117.0565033   -25.6399593   35.8353615    -18.4137497   -15.2679796   
660000000     -11.5084496   -100.0934982  20.3082199    116.7457962   -25.5091209   35.8215294    -18.3615608   -15.7043800   
665000000     -11.5295601   -100.6388016  20.2693806    116.4730988   -25.5040398   35.8977318    -18.3628902   -15.5475798   
670000000     -11.5786896   -100.9996033  20.2277107    116.1716003   -25.5045509   36.3698082    -18.3330803   -15.7459002   
675000000     -11.5884895   -101.5186996  20.1909904    115.8684006   -25.4826698   36.7273598    -18.3302097   -16.0593109   
680000000     -11.6021996   -102.0150986  20.1552696    115.5904007   -25.3984299   36.3663292    -18.2995205   -15.8239202   
685000000     -11.5985699   -102.4682007  20.1192093    115.3193970   -25.3793793   36.7353592    -18.3018894   -16.4423809   
690000000     -11.6167002   -102.9413986  20.0796604    115.0168991   -25.3881397   36.5287399    -18.2758293   -16.6738091   
695000000     -11.6143198   -103.4411011  20.0441303    114.7085037   -25.3612499   37.1674995    -18.2965908   -16.8504601   
700000000     -11.6246300   -103.8716965  20.0020905    114.4192963   -25.2890701   37.2337303    -18.2702808   -16.9149704   
705000000     -11.6514902   -104.3706970  19.9643402    114.1701965   -25.3059406   36.9649582    -18.2533607   -16.6291599   
710000000     -11.6553497   -104.7498016  19.9269791    113.8572998   -25.2235699   37.4912491    -18.2584400   -17.4158993   
715000000     -11.6798801   -105.1789017  19.8931904    113.5975037   -25.1840992   37.8153305    -18.2456093   -17.4401093   
720000000     -11.6820097   -105.6645966  19.8527508    113.3142014   -25.0969009   37.7862015    -18.2675591   -17.6419907   
725000000     -11.6953297   -106.0950012  19.8195305    113.0143967   -25.1721306   37.9281197    -18.2212105   -17.8485203   
730000000     -11.6948099   -106.6131973  19.7807999    112.7490005   -25.0995007   38.3888893    -18.2280407   -18.0240707   
735000000     -11.7115602   -107.0038986  19.7416992    112.4837036   -25.0879192   38.0438194    -18.2623997   -17.8197308   
740000000     -11.7493095   -107.4896011  19.7057991    112.1708984   -25.0668201   37.9715118    -18.2668304   -18.3904495   
745000000     -11.7549000   -107.9059982  19.6663799    111.9484024   -25.0112991   38.0661316    -18.2712803   -18.2814293   
750000000     -11.7746897   -108.2926025  19.6260509    111.6650009   -24.9850502   38.3869209    -18.2206802   -18.8069992   
755000000     -11.7729597   -108.7494965  19.5954704    111.3925018   -24.9897003   38.2794189    -18.2126102   -18.7122192   
760000000     -11.8177795   -109.2792969  19.5543003    111.1244965   -24.9312000   38.5604706    -18.1627808   -18.7750206   
765000000     -11.8262300   -109.5687027  19.5157108    110.8563995   -24.8449402   38.8345604    -18.1271305   -19.3603191   
