!Agilent Technologies,E5071C,MY46107443,A.09.30
!Date: Tue Apr 26 16:01:18 2016
!Data & Calibration Information:
!Freq	S11:SOLT2(ON)	S21:SOLT2(ON)	S12:SOLT2(ON)	S22:SOLT2(ON)
# Hz S dB R 50
1000000	-1.653362e+000	-1.490819e+002	-5.281224e+000	-9.749388e+001	-2.166380e+001	2.625756e+001	-5.540259e-001	-1.512319e+002
30995000	-1.004450e+001	8.789338e+001	1.894423e+001	-1.602522e+002	-3.168165e+001	-1.075046e+002	-9.399611e+000	6.947707e+001
60990000	-2.027024e+001	3.161959e+001	1.938597e+001	1.774249e+002	-4.098214e+001	-1.662194e+002	-1.472143e+001	1.837429e+001
90985000	-2.518203e+001	-5.430140e+001	1.918942e+001	1.655176e+002	-4.733125e+001	1.235237e+002	-1.726857e+001	-1.603227e+001
120980000	-2.146013e+001	-9.183802e+001	1.905008e+001	1.566508e+002	-4.742663e+001	8.059138e+001	-1.761090e+001	-3.922163e+001
150975000	-1.850813e+001	-1.035705e+002	1.897312e+001	1.485815e+002	-4.588270e+001	6.679548e+001	-1.690853e+001	-5.653908e+001
180970000	-1.631148e+001	-1.108894e+002	1.886206e+001	1.407181e+002	-4.433020e+001	6.210725e+001	-1.593683e+001	-7.064203e+001
210965000	-1.451685e+001	-1.173937e+002	1.874629e+001	1.333010e+002	-4.284219e+001	5.758808e+001	-1.491371e+001	-8.304336e+001
240960000	-1.312289e+001	-1.238882e+002	1.863762e+001	1.259636e+002	-4.136612e+001	5.421494e+001	-1.402905e+001	-9.371757e+001
270955000	-1.202321e+001	-1.300536e+002	1.850366e+001	1.185306e+002	-4.035678e+001	4.897044e+001	-1.326661e+001	-1.030410e+002
300950000	-1.114238e+001	-1.343289e+002	1.835679e+001	1.113377e+002	-3.999238e+001	4.708161e+001	-1.247900e+001	-1.103442e+002
330945000	-1.004415e+001	-1.398129e+002	1.813828e+001	1.039406e+002	-3.830464e+001	4.677537e+001	-1.157183e+001	-1.199474e+002
360940000	-9.334046e+000	-1.463453e+002	1.793415e+001	9.713546e+001	-3.707278e+001	3.860528e+001	-1.113468e+001	-1.280252e+002
390935000	-8.780127e+000	-1.520103e+002	1.771357e+001	9.011244e+001	-3.653724e+001	3.231518e+001	-1.069056e+001	-1.348953e+002
420930000	-8.379558e+000	-1.564334e+002	1.748638e+001	8.358862e+001	-3.654983e+001	2.784424e+001	-1.024854e+001	-1.403724e+002
450925000	-7.404946e+000	-1.611995e+002	1.722906e+001	7.603727e+001	-3.483844e+001	3.226947e+001	-9.278967e+000	-1.488226e+002
480920000	-7.086741e+000	-1.682201e+002	1.691646e+001	6.956924e+001	-3.395270e+001	2.208749e+001	-9.211495e+000	-1.566404e+002
510915000	-6.815658e+000	-1.736942e+002	1.654853e+001	6.314054e+001	-3.362433e+001	1.516095e+001	-8.983913e+000	-1.625112e+002
540910000	-6.572305e+000	-1.785034e+002	1.624130e+001	5.757564e+001	-3.343344e+001	1.062512e+001	-8.720074e+000	-1.679920e+002
570905000	-6.267318e+000	1.778288e+002	1.612852e+001	5.096983e+001	-3.337354e+001	9.400839e+000	-8.231327e+000	-1.726018e+002
600900000	-5.618456e+000	1.708099e+002	1.548575e+001	4.328356e+001	-3.136219e+001	7.027194e+000	-7.750144e+000	1.767777e+002
630895000	-5.721664e+000	1.650307e+002	1.505971e+001	3.912144e+001	-3.136054e+001	-3.339927e+000	-8.040283e+000	1.717502e+002
660890000	-5.604514e+000	1.609543e+002	1.486483e+001	3.397122e+001	-3.125610e+001	-6.737190e+000	-7.772166e+000	1.674445e+002
690885000	-5.248290e+000	1.558915e+002	1.443345e+001	2.682524e+001	-3.031317e+001	-8.366806e+000	-7.344915e+000	1.596603e+002
720880000	-5.238469e+000	1.492387e+002	1.377171e+001	2.255980e+001	-2.956400e+001	-1.745347e+001	-7.584662e+000	1.521673e+002
750875000	-5.353679e+000	1.441041e+002	1.345758e+001	1.950646e+001	-2.949915e+001	-2.480863e+001	-7.776886e+000	1.473817e+002
780870000	-5.357400e+000	1.395755e+002	1.326130e+001	1.427466e+001	-2.920852e+001	-2.868395e+001	-7.633891e+000	1.422712e+002
810865000	-5.382336e+000	1.339021e+002	1.262633e+001	9.659938e+000	-2.852732e+001	-3.503363e+001	-7.724231e+000	1.347221e+002
840860000	-5.694304e+000	1.282343e+002	1.222900e+001	8.281208e+000	-2.830081e+001	-4.302592e+001	-8.119933e+000	1.295143e+002
870855000	-6.138184e+000	1.233388e+002	1.220190e+001	6.346413e+000	-2.809591e+001	-4.917983e+001	-8.289650e+000	1.249140e+002
900850000	-6.846691e+000	1.193468e+002	1.231306e+001	3.593471e+000	-2.787602e+001	-5.857360e+001	-8.748541e+000	1.203712e+002
930845000	-7.639290e+000	1.190464e+002	1.251192e+001	-3.325302e-001	-2.835953e+001	-6.666196e+001	-8.986651e+000	1.180645e+002
960840000	-8.073994e+000	1.222595e+002	1.288076e+001	-4.964805e+000	-2.916516e+001	-7.266943e+001	-9.031020e+000	1.177428e+002
990835000	-7.659404e+000	1.252010e+002	1.310853e+001	-1.332031e+001	-2.969572e+001	-7.204081e+001	-8.240516e+000	1.134093e+002
1020830000	-7.108310e+000	1.244831e+002	1.277896e+001	-2.183985e+001	-2.961883e+001	-7.320094e+001	-7.928894e+000	1.052877e+002
1050825000	-6.619342e+000	1.218114e+002	1.217415e+001	-2.715470e+001	-2.944687e+001	-7.417528e+001	-8.152422e+000	9.579173e+001
1080820000	-6.365012e+000	1.183157e+002	1.191151e+001	-3.132038e+001	-2.906394e+001	-7.778522e+001	-8.642595e+000	8.897330e+001
1110815000	-6.128469e+000	1.151738e+002	1.156794e+001	-3.543263e+001	-2.884950e+001	-8.035917e+001	-9.348903e+000	8.108160e+001
1140810000	-6.052144e+000	1.117379e+002	1.151393e+001	-3.892424e+001	-2.835637e+001	-8.615147e+001	-1.042280e+001	7.876771e+001
1170805000	-5.880958e+000	1.090166e+002	1.142481e+001	-4.329500e+001	-2.853966e+001	-8.994876e+001	-1.098214e+001	7.774015e+001
1200800000	-5.847566e+000	1.058427e+002	1.153099e+001	-4.761870e+001	-2.839965e+001	-9.366463e+001	-1.097735e+001	7.914097e+001
1230795000	-5.766000e+000	1.032643e+002	1.166115e+001	-5.417628e+001	-2.818115e+001	-9.633333e+001	-1.035123e+001	7.549644e+001
1260790000	-5.640160e+000	1.007907e+002	1.141270e+001	-6.203948e+001	-2.806721e+001	-1.013408e+002	-9.867667e+000	6.846757e+001
1290785000	-5.455929e+000	9.809932e+001	1.095289e+001	-6.749592e+001	-2.815317e+001	-1.039755e+002	-9.661296e+000	5.845379e+001
1320780000	-5.308849e+000	9.525967e+001	1.075698e+001	-7.336805e+001	-2.786690e+001	-1.071214e+002	-9.706526e+000	4.733694e+001
1350775000	-5.113099e+000	9.256100e+001	1.014589e+001	-8.023848e+001	-2.789601e+001	-1.118312e+002	-9.828977e+000	3.434827e+001
1380770000	-4.890660e+000	8.949546e+001	9.407633e+000	-8.365530e+001	-2.814171e+001	-1.136480e+002	-1.021980e+001	1.882818e+001
1410765000	-4.622128e+000	8.606105e+001	8.962692e+000	-8.662244e+001	-2.812667e+001	-1.128483e+002	-1.088149e+001	8.154190e-001
1440760000	-4.366183e+000	8.210427e+001	8.337771e+000	-8.925173e+001	-2.759642e+001	-1.129289e+002	-1.174265e+001	-2.052130e+001
1470755000	-4.091529e+000	7.781519e+001	7.900310e+000	-8.840955e+001	-2.714816e+001	-1.136688e+002	-1.274981e+001	-4.634549e+001
1500750000	-3.866843e+000	7.249320e+001	8.227589e+000	-8.838851e+001	-2.626726e+001	-1.129667e+002	-1.406432e+001	-7.558386e+001
1530745000	-3.827592e+000	6.690911e+001	8.444689e+000	-9.183023e+001	-2.479433e+001	-1.154313e+002	-1.494110e+001	-1.029168e+002
1560740000	-3.898534e+000	6.182056e+001	8.588745e+000	-9.440445e+001	-2.364796e+001	-1.253545e+002	-1.482599e+001	-1.269538e+002
1590735000	-3.921615e+000	5.723442e+001	8.992269e+000	-9.871134e+001	-2.362884e+001	-1.320411e+002	-1.416233e+001	-1.489334e+002
1620730000	-3.919245e+000	5.183915e+001	8.971102e+000	-1.046866e+002	-2.276667e+001	-1.340424e+002	-1.356904e+001	-1.656190e+002
1650725000	-4.070047e+000	4.643510e+001	8.837541e+000	-1.081974e+002	-2.156171e+001	-1.434641e+002	-1.262699e+001	-1.775507e+002
1680720000	-4.313741e+000	4.141258e+001	8.992145e+000	-1.117542e+002	-2.136019e+001	-1.544809e+002	-1.142667e+001	1.710387e+002
1710715000	-4.504518e+000	3.687892e+001	9.024345e+000	-1.170781e+002	-2.142259e+001	-1.603757e+002	-1.044242e+001	1.595235e+002
1740710000	-4.631718e+000	3.141580e+001	8.733380e+000	-1.207862e+002	-2.084596e+001	-1.644589e+002	-9.691386e+000	1.500687e+002
1770705000	-4.919723e+000	2.492667e+001	8.800040e+000	-1.212930e+002	-1.990601e+001	-1.739276e+002	-8.679015e+000	1.419892e+002
1800700000	-5.508552e+000	1.892862e+001	9.383813e+000	-1.251060e+002	-1.989877e+001	1.742863e+002	-7.616237e+000	1.311373e+002
1830695000	-6.106153e+000	1.453392e+001	9.346906e+000	-1.297532e+002	-2.014823e+001	1.676756e+002	-6.944858e+000	1.183697e+002
1860690000	-6.653710e+000	9.621120e+000	9.745132e+000	-1.294549e+002	-1.968478e+001	1.608196e+002	-6.734437e+000	1.073076e+002
1890685000	-7.576686e+000	3.532778e+000	1.095558e+001	-1.350476e+002	-1.970850e+001	1.496661e+002	-6.413180e+000	9.581733e+001
1920680000	-8.812262e+000	1.885157e+000	1.131727e+001	-1.438059e+002	-2.030433e+001	1.418984e+002	-6.474170e+000	8.215857e+001
1950675000	-9.349822e+000	2.514224e+000	1.169543e+001	-1.495713e+002	-2.065605e+001	1.377348e+002	-7.400947e+000	6.917953e+001
1980670000	-9.584338e+000	-9.824214e-001	1.224347e+001	-1.582767e+002	-2.066952e+001	1.336037e+002	-8.735970e+000	6.109146e+001
2010665000	-1.023209e+001	-6.455089e+000	1.225561e+001	-1.678643e+002	-2.065873e+001	1.297832e+002	-1.003915e+001	5.717616e+001
2040660000	-1.121218e+001	-1.348860e+001	1.203895e+001	-1.743585e+002	-2.024320e+001	1.271301e+002	-1.098441e+001	5.617134e+001
2070655000	-1.267739e+001	-2.267507e+001	1.220136e+001	-1.789533e+002	-1.936598e+001	1.215592e+002	-1.160109e+001	5.667382e+001
2100650000	-1.509748e+001	-3.700916e+001	1.261468e+001	1.737254e+002	-1.878115e+001	1.127216e+002	-1.178987e+001	5.556584e+001
2130645000	-1.918401e+001	-6.428563e+001	1.252014e+001	1.664587e+002	-1.822454e+001	1.054335e+002	-1.166996e+001	5.456610e+001
2160640000	-2.145741e+001	-1.427966e+002	1.274055e+001	1.641694e+002	-1.730356e+001	9.516587e+001	-1.109928e+001	4.864204e+001
2190635000	-1.369118e+001	1.584584e+002	1.415955e+001	1.581252e+002	-1.662055e+001	8.224904e+001	-1.049648e+001	3.188073e+001
2220630000	-8.135208e+000	1.270366e+002	1.494372e+001	1.449667e+002	-1.589652e+001	6.459391e+001	-1.144154e+001	2.630384e+000
2250625000	-5.084618e+000	1.002715e+002	1.569737e+001	1.328783e+002	-1.669933e+001	4.248132e+001	-1.412951e+001	-4.161480e+001
2280620000	-3.567921e+000	7.610899e+001	1.596525e+001	1.142918e+002	-1.823939e+001	2.769352e+001	-1.470972e+001	-1.125399e+002
2310615000	-3.490742e+000	5.665175e+001	1.521629e+001	9.900355e+001	-2.004498e+001	1.399641e+001	-1.137869e+001	-1.707306e+002
2340610000	-4.046210e+000	4.475315e+001	1.461284e+001	8.661503e+001	-2.233869e+001	6.913804e+000	-8.789142e+000	1.568706e+002
2370605000	-4.491709e+000	3.771756e+001	1.382499e+001	7.286085e+001	-2.424264e+001	5.943524e+000	-6.928112e+000	1.368460e+002
2400600000	-4.914526e+000	3.319357e+001	1.250400e+001	6.293261e+001	-2.514104e+001	9.510240e+000	-5.594866e+000	1.209435e+002
2430595000	-5.086265e+000	3.163915e+001	1.198362e+001	5.657874e+001	-2.488740e+001	7.565460e+000	-4.711388e+000	1.079613e+002
2460590000	-4.797238e+000	3.000989e+001	1.151530e+001	4.408608e+001	-2.532707e+001	-4.833853e-001	-4.075609e+000	9.729507e+001
2490585000	-4.414707e+000	2.680079e+001	1.028665e+001	3.413144e+001	-2.625281e+001	-3.816308e+000	-3.477172e+000	8.801507e+001
2520580000	-4.146761e+000	2.347530e+001	9.428048e+000	2.666488e+001	-2.634004e+001	-5.618670e+000	-2.993148e+000	7.914906e+001
2550575000	-3.799097e+000	2.039237e+001	8.734475e+000	1.853643e+001	-2.626309e+001	-1.329962e+001	-2.638332e+000	7.083471e+001
2580570000	-3.454316e+000	1.689231e+001	8.148615e+000	7.174435e+000	-2.706719e+001	-2.326882e+001	-2.388836e+000	6.306741e+001
2610565000	-3.094743e+000	1.303425e+001	6.375226e+000	-4.045224e+000	-2.838574e+001	-2.641247e+001	-2.163272e+000	5.590458e+001
2640560000	-2.777126e+000	8.923941e+000	5.212828e+000	-3.995902e+000	-2.810399e+001	-2.663892e+001	-1.990548e+000	4.911748e+001
2670555000	-2.472745e+000	4.736488e+000	5.607359e+000	-1.618612e+001	-2.811617e+001	-4.073423e+001	-1.851394e+000	4.252196e+001
2700550000	-2.145966e+000	5.718475e-001	3.203306e+000	-3.105102e+001	-3.017408e+001	-4.802369e+001	-1.762008e+000	3.633400e+001
2730545000	-1.873932e+000	-4.026129e+000	1.531382e+000	-2.721690e+001	-3.063630e+001	-4.403774e+001	-1.716664e+000	3.037950e+001
2760540000	-1.642025e+000	-8.679460e+000	2.222881e+000	-3.718046e+001	-2.998736e+001	-5.532999e+001	-1.667743e+000	2.477060e+001
2790535000	-1.426590e+000	-1.328321e+001	-3.249143e-002	-5.370164e+001	-3.171240e+001	-6.680004e+001	-1.633124e+000	1.942491e+001
2820530000	-1.221126e+000	-1.804773e+001	-2.323496e+000	-5.299729e+001	-3.297901e+001	-6.772676e+001	-1.615172e+000	1.421711e+001
2850525000	-1.050037e+000	-2.285094e+001	-2.434998e+000	-5.577110e+001	-3.318413e+001	-7.264621e+001	-1.602359e+000	9.278977e+000
2880520000	-9.136744e-001	-2.761406e+001	-3.477179e+000	-7.011605e+001	-3.412845e+001	-8.351585e+001	-1.589263e+000	4.421810e+000
2910515000	-8.015565e-001	-3.235335e+001	-6.041637e+000	-7.912767e+001	-3.606254e+001	-9.079530e+001	-1.585849e+000	-2.581072e-001
2940510000	-7.011938e-001	-3.707745e+001	-7.821789e+000	-7.843613e+001	-3.723461e+001	-9.129497e+001	-1.581345e+000	-4.717929e+000
2970505000	-6.076550e-001	-4.178583e+001	-8.271644e+000	-8.893856e+001	-3.773872e+001	-1.015028e+002	-1.577960e+000	-9.053097e+000
3000500000	-5.334477e-001	-4.642690e+001	-1.149532e+001	-1.055841e+002	-4.091277e+001	-1.134617e+002	-1.567311e+000	-1.327885e+001
3030495000	-4.763246e-001	-5.100431e+001	-1.527000e+001	-1.045681e+002	-4.374723e+001	-1.064008e+002	-1.551779e+000	-1.741065e+001
3060490000	-4.327484e-001	-5.558325e+001	-1.722924e+001	-1.101027e+002	-4.488697e+001	-1.097718e+002	-1.515586e+000	-2.141045e+001
3090485000	-4.004198e-001	-6.021957e+001	-2.290537e+001	-1.261609e+002	-4.969658e+001	-1.146466e+002	-1.463008e+000	-2.537265e+001
3120480000	-3.828326e-001	-6.486890e+001	-3.463473e+001	-1.216389e+002	-5.480742e+001	-8.071424e+001	-1.410544e+000	-2.933677e+001
3150475000	-3.838091e-001	-6.942783e+001	-3.301379e+001	3.426288e+001	-5.295935e+001	-3.794848e+001	-1.340577e+000	-3.332480e+001
3180470000	-3.906923e-001	-7.384529e+001	-2.462308e+001	2.903428e+001	-4.950682e+001	-2.810222e+001	-1.258127e+000	-3.732318e+001
3210465000	-4.122787e-001	-7.820806e+001	-2.160780e+001	1.988507e+001	-4.839317e+001	-2.966701e+001	-1.173270e+000	-4.137589e+001
3240460000	-4.426522e-001	-8.251254e+001	-2.052939e+001	1.665419e+001	-4.707639e+001	-2.305894e+001	-1.099860e+000	-4.549176e+001
3270455000	-4.788097e-001	-8.679883e+001	-1.850646e+001	1.816455e+001	-4.440730e+001	-2.317032e+001	-1.026447e+000	-4.969867e+001
3300450000	-5.123325e-001	-9.098068e+001	-1.676497e+001	3.077251e+000	-4.384134e+001	-3.995047e+001	-9.568417e-001	-5.392078e+001
3330445000	-5.476966e-001	-9.503855e+001	-1.806736e+001	-5.438575e+000	-4.508515e+001	-4.070188e+001	-8.808565e-001	-5.812599e+001
3360440000	-5.902807e-001	-9.905335e+001	-1.757728e+001	1.854924e+000	-4.369270e+001	-3.469215e+001	-8.171587e-001	-6.235280e+001
3390435000	-6.354574e-001	-1.030938e+002	-1.579675e+001	-1.002975e+001	-4.230310e+001	-4.967867e+001	-7.618429e-001	-6.659084e+001
3420430000	-6.757549e-001	-1.071327e+002	-1.708877e+001	-2.304007e+001	-4.353548e+001	-5.907372e+001	-7.125468e-001	-7.085418e+001
3450425000	-7.129182e-001	-1.111236e+002	-1.807566e+001	-2.092001e+001	-4.395501e+001	-5.806582e+001	-6.651324e-001	-7.512489e+001
3480420000	-7.515674e-001	-1.150716e+002	-1.745385e+001	-2.174353e+001	-4.363534e+001	-6.145680e+001	-6.205761e-001	-7.935906e+001
3510415000	-7.886737e-001	-1.189852e+002	-1.723862e+001	-3.227940e+001	-4.346745e+001	-7.154485e+001	-5.848641e-001	-8.360159e+001
3540410000	-8.235414e-001	-1.228048e+002	-1.878543e+001	-4.115064e+001	-4.483059e+001	-7.910984e+001	-5.582241e-001	-8.784868e+001
3570405000	-8.556541e-001	-1.265726e+002	-1.982495e+001	-3.664622e+001	-4.543414e+001	-7.673704e+001	-5.265476e-001	-9.207729e+001
3600400000	-8.971040e-001	-1.303365e+002	-1.885912e+001	-4.190795e+001	-4.465685e+001	-8.700834e+001	-4.970280e-001	-9.627572e+001
3630395000	-9.438333e-001	-1.341528e+002	-2.047871e+001	-5.721223e+001	-4.654818e+001	-9.949424e+001	-4.772437e-001	-1.004134e+002
3660390000	-9.860645e-001	-1.379399e+002	-2.281616e+001	-5.542926e+001	-4.847678e+001	-9.724262e+001	-4.592728e-001	-1.045767e+002
3690385000	-1.019417e+000	-1.416150e+002	-2.322699e+001	-5.625146e+001	-4.854435e+001	-1.038039e+002	-4.415719e-001	-1.087705e+002
3720380000	-1.040061e+000	-1.451705e+002	-2.492313e+001	-6.574584e+001	-4.979278e+001	-1.158465e+002	-4.219966e-001	-1.129132e+002
3750375000	-1.051553e+000	-1.487780e+002	-2.811521e+001	-7.110776e+001	-5.278324e+001	-1.291903e+002	-4.102107e-001	-1.170570e+002
3780370000	-1.058288e+000	-1.524564e+002	-3.287645e+001	-6.912840e+001	-5.590148e+001	-1.343321e+002	-4.036360e-001	-1.212137e+002
3810365000	-1.054577e+000	-1.561053e+002	-3.964230e+001	-4.617629e+001	-5.812970e+001	-1.651767e+002	-4.005081e-001	-1.253595e+002
3840360000	-1.045308e+000	-1.597276e+002	-3.984918e+001	4.750545e+001	-5.922778e+001	1.325216e+002	-3.949708e-001	-1.294489e+002
3870355000	-1.041078e+000	-1.634015e+002	-3.357905e+001	6.097303e+001	-5.688150e+001	8.682639e+001	-3.957322e-001	-1.335416e+002
3900350000	-1.040461e+000	-1.672400e+002	-2.938802e+001	8.078819e+001	-5.226214e+001	7.780698e+001	-4.059514e-001	-1.376080e+002
3930345000	-1.038070e+000	-1.711580e+002	-2.344642e+001	7.478784e+001	-4.836601e+001	5.815422e+001	-4.109792e-001	-1.416296e+002
3960340000	-1.026238e+000	-1.750648e+002	-2.244133e+001	5.513079e+001	-4.810537e+001	3.874410e+001	-4.198593e-001	-1.456523e+002
3990335000	-1.025475e+000	-1.789494e+002	-2.257982e+001	6.219962e+001	-4.726080e+001	4.473877e+001	-4.376204e-001	-1.496816e+002
4020330000	-1.033946e+000	1.771747e+002	-1.913442e+001	7.016680e+001	-4.375252e+001	4.350949e+001	-4.603633e-001	-1.536877e+002
4050325000	-1.058057e+000	1.732771e+002	-1.605240e+001	5.295435e+001	-4.197885e+001	2.491869e+001	-4.804922e-001	-1.576672e+002
4080320000	-1.084860e+000	1.694292e+002	-1.698618e+001	3.849803e+001	-4.245919e+001	1.854634e+001	-5.016608e-001	-1.616223e+002
4110315000	-1.108011e+000	1.656343e+002	-1.696075e+001	5.125870e+001	-4.097701e+001	2.592150e+001	-5.339967e-001	-1.655490e+002
4140310000	-1.128560e+000	1.618445e+002	-1.281636e+001	4.840168e+001	-3.813932e+001	1.383166e+001	-5.719867e-001	-1.694028e+002
4170305000	-1.141828e+000	1.580282e+002	-1.257636e+001	2.218738e+001	-3.831860e+001	-1.179565e+000	-6.112054e-001	-1.732407e+002
4200300000	-1.140632e+000	1.542256e+002	-1.441366e+001	2.757566e+001	-3.809366e+001	3.201021e+000	-6.506093e-001	-1.770736e+002
4230295000	-1.128924e+000	1.503795e+002	-1.143951e+001	3.323174e+001	-3.550422e+001	-4.162065e+000	-6.933989e-001	1.790852e+002
4260290000	-1.115215e+000	1.464283e+002	-1.024379e+001	1.281491e+001	-3.543535e+001	-1.914102e+001	-7.370344e-001	1.752678e+002
4290285000	-1.101002e+000	1.423883e+002	-1.153615e+001	1.020289e+001	-3.517631e+001	-2.126518e+001	-7.845206e-001	1.715037e+002
4320280000	-1.083182e+000	1.382603e+002	-1.021762e+001	1.356675e+001	-3.374964e+001	-2.930724e+001	-8.382413e-001	1.677346e+002
4350275000	-1.064846e+000	1.340480e+002	-9.013697e+000	4.266770e+000	-3.328629e+001	-4.087044e+001	-9.024010e-001	1.639393e+002
4380270000	-1.050419e+000	1.296892e+002	-9.020083e+000	-2.441707e+000	-3.306715e+001	-5.034036e+001	-9.793586e-001	1.601665e+002
4410265000	-1.034486e+000	1.250491e+002	-8.792255e+000	-3.202895e+000	-3.292052e+001	-5.661483e+001	-1.067090e+000	1.564622e+002
4440260000	-1.019719e+000	1.201461e+002	-7.551490e+000	-4.762954e+000	-3.162446e+001	-6.626166e+001	-1.177071e+000	1.528093e+002
4470255000	-1.011084e+000	1.149179e+002	-6.689825e+000	-1.409501e+001	-3.152575e+001	-8.788853e+001	-1.320686e+000	1.492258e+002
4500250000	-1.039753e+000	1.092918e+002	-6.778759e+000	-1.660524e+001	-3.287007e+001	-9.871299e+001	-1.489893e+000	1.459098e+002
4530245000	-1.140975e+000	1.031656e+002	-5.135485e+000	-1.674433e+001	-3.231745e+001	-1.110313e+002	-1.654467e+000	1.430154e+002
4560240000	-1.351232e+000	9.665535e+001	-3.775437e+000	-2.956360e+001	-3.321505e+001	-1.413867e+002	-1.786724e+000	1.405303e+002
