!Agilent Technologies,E5071C,MY46107443,A.09.30
!Date: Tue Apr 26 16:12:07 2016
!Data & Calibration Information:
!Freq	S11:SOLT2(ON)	S21:SOLT2(ON)	S12:SOLT2(ON)	S22:SOLT2(ON)
# Hz S dB R 50
1000000	-1.652266e+000	-1.490561e+002	-5.405284e+000	-9.737130e+001	-2.171215e+001	2.707139e+001	-5.477698e-001	-1.510693e+002
30995000	-1.004817e+001	8.823714e+001	1.892984e+001	-1.601514e+002	-3.178683e+001	-1.066411e+002	-9.440475e+000	6.998736e+001
60990000	-2.008012e+001	3.386852e+001	1.938140e+001	1.778154e+002	-4.079964e+001	-1.672032e+002	-1.469845e+001	1.915958e+001
90985000	-2.592030e+001	-5.055911e+001	1.918634e+001	1.660893e+002	-4.701225e+001	1.196403e+002	-1.733556e+001	-1.462315e+001
120980000	-2.254612e+001	-9.080629e+001	1.905124e+001	1.574893e+002	-4.750023e+001	7.705987e+001	-1.781909e+001	-3.673774e+001
150975000	-1.934735e+001	-1.023277e+002	1.898883e+001	1.495834e+002	-4.598383e+001	6.952338e+001	-1.711207e+001	-5.417871e+001
180970000	-1.707128e+001	-1.098245e+002	1.888649e+001	1.419158e+002	-4.432993e+001	6.357513e+001	-1.619222e+001	-6.828385e+001
210965000	-1.521593e+001	-1.164307e+002	1.878170e+001	1.346748e+002	-4.278648e+001	5.980288e+001	-1.521765e+001	-8.086322e+001
240960000	-1.379030e+001	-1.229988e+002	1.868397e+001	1.275040e+002	-4.131698e+001	5.440649e+001	-1.436801e+001	-9.174910e+001
270955000	-1.276257e+001	-1.287180e+002	1.857516e+001	1.203549e+002	-4.069360e+001	5.036566e+001	-1.364192e+001	-1.005834e+002
300950000	-1.148936e+001	-1.340305e+002	1.840151e+001	1.128952e+002	-3.910288e+001	4.954849e+001	-1.269302e+001	-1.100029e+002
330945000	-1.065789e+001	-1.399038e+002	1.820465e+001	1.061198e+002	-3.807471e+001	4.535859e+001	-1.205690e+001	-1.188315e+002
360940000	-9.934584e+000	-1.456699e+002	1.804242e+001	9.936457e+001	-3.719703e+001	3.921971e+001	-1.153144e+001	-1.265358e+002
390935000	-9.359854e+000	-1.511331e+002	1.784345e+001	9.244638e+001	-3.669074e+001	3.363242e+001	-1.106017e+001	-1.334340e+002
420930000	-8.977072e+000	-1.538506e+002	1.771107e+001	8.593752e+001	-3.732815e+001	3.477049e+001	-1.045857e+001	-1.373352e+002
450925000	-7.816135e+000	-1.616325e+002	1.732037e+001	7.852491e+001	-3.428685e+001	3.174665e+001	-9.623043e+000	-1.491544e+002
480920000	-7.550305e+000	-1.676753e+002	1.707935e+001	7.211128e+001	-3.386112e+001	2.321924e+001	-9.494928e+000	-1.561453e+002
510915000	-7.233847e+000	-1.729840e+002	1.673600e+001	6.564957e+001	-3.360047e+001	1.745529e+001	-9.215083e+000	-1.619759e+002
540910000	-6.937552e+000	-1.773755e+002	1.645575e+001	5.991350e+001	-3.356717e+001	1.478302e+001	-8.832587e+000	-1.673505e+002
570905000	-6.258286e+000	1.763805e+002	1.610739e+001	5.290306e+001	-3.175928e+001	1.332827e+001	-8.247277e+000	-1.765178e+002
600900000	-6.256807e+000	1.702992e+002	1.573438e+001	4.717657e+001	-3.165796e+001	3.139557e+000	-8.363476e+000	1.774895e+002
630895000	-6.127436e+000	1.657666e+002	1.533701e+001	4.176511e+001	-3.172162e+001	-9.192417e-001	-8.179525e+000	1.724048e+002
660890000	-5.771811e+000	1.620860e+002	1.509316e+001	3.582575e+001	-3.136954e+001	2.758102e-001	-7.589887e+000	1.670619e+002
690885000	-5.500752e+000	1.539295e+002	1.446730e+001	3.042818e+001	-2.960962e+001	-8.824552e+000	-7.709116e+000	1.564165e+002
720880000	-5.619619e+000	1.486944e+002	1.402423e+001	2.598107e+001	-2.970210e+001	-1.738378e+001	-7.872040e+000	1.516371e+002
750875000	-5.601990e+000	1.438836e+002	1.368555e+001	2.221824e+001	-2.969881e+001	-2.153466e+001	-7.786258e+000	1.465555e+002
780870000	-5.479729e+000	1.387070e+002	1.338466e+001	1.690010e+001	-2.910125e+001	-2.407099e+001	-7.538870e+000	1.399969e+002
810865000	-5.588971e+000	1.319205e+002	1.274834e+001	1.349780e+001	-2.830651e+001	-3.350651e+001	-7.932253e+000	1.319883e+002
840860000	-5.905676e+000	1.266808e+002	1.242014e+001	1.160578e+001	-2.842494e+001	-4.058434e+001	-8.125786e+000	1.280548e+002
870855000	-6.272952e+000	1.212387e+002	1.232047e+001	9.851472e+000	-2.816950e+001	-4.573232e+001	-8.213344e+000	1.221169e+002
900850000	-7.000516e+000	1.164810e+002	1.244292e+001	7.379529e+000	-2.796280e+001	-5.474801e+001	-8.631297e+000	1.173873e+002
930845000	-7.918574e+000	1.148720e+002	1.269414e+001	4.340996e+000	-2.840046e+001	-6.383475e+001	-9.111922e+000	1.152131e+002
960840000	-8.472637e+000	1.188744e+002	1.313242e+001	-1.643837e+000	-2.956040e+001	-6.747470e+001	-8.565489e+000	1.154894e+002
990835000	-8.108529e+000	1.217893e+002	1.320894e+001	-9.731032e+000	-2.980194e+001	-6.576168e+001	-7.887444e+000	1.085125e+002
1020830000	-7.572347e+000	1.212618e+002	1.282067e+001	-1.742827e+001	-2.953533e+001	-6.697896e+001	-7.749112e+000	9.984966e+001
1050825000	-7.167064e+000	1.185942e+002	1.237794e+001	-2.227291e+001	-2.925795e+001	-6.920350e+001	-7.981395e+000	9.253940e+001
1080820000	-6.890614e+000	1.158004e+002	1.203249e+001	-2.711797e+001	-2.915074e+001	-7.252439e+001	-8.079408e+000	8.442771e+001
1110815000	-6.646003e+000	1.126236e+002	1.170854e+001	-3.083906e+001	-2.885449e+001	-7.509133e+001	-8.713305e+000	7.642303e+001
1140810000	-6.358243e+000	1.096211e+002	1.147762e+001	-3.415541e+001	-2.864610e+001	-7.726976e+001	-9.517301e+000	7.013137e+001
1170805000	-6.280778e+000	1.048138e+002	1.151756e+001	-3.707683e+001	-2.801052e+001	-8.230733e+001	-1.057871e+001	6.888556e+001
1200800000	-6.433093e+000	1.026111e+002	1.172758e+001	-4.220853e+001	-2.830410e+001	-8.867651e+001	-1.034382e+001	7.144130e+001
1230795000	-6.257109e+000	1.006849e+002	1.176834e+001	-4.936686e+001	-2.833159e+001	-8.979614e+001	-9.548576e+000	6.670938e+001
1260790000	-6.031972e+000	9.766669e+001	1.133500e+001	-5.645816e+001	-2.804768e+001	-9.227534e+001	-9.203456e+000	5.799377e+001
1290785000	-5.951121e+000	9.430054e+001	1.097352e+001	-6.064869e+001	-2.776101e+001	-9.601635e+001	-9.196955e+000	4.990771e+001
1320780000	-5.897598e+000	9.201323e+001	1.085835e+001	-6.705139e+001	-2.763979e+001	-1.009106e+002	-8.883594e+000	4.138193e+001
1350775000	-5.649387e+000	9.005008e+001	1.010548e+001	-7.425327e+001	-2.797280e+001	-1.048455e+002	-8.521073e+000	2.907001e+001
1380770000	-5.307864e+000	8.703330e+001	9.222780e+000	-7.636412e+001	-2.825390e+001	-1.045230e+002	-8.625093e+000	1.393502e+001
1410765000	-5.014509e+000	8.308940e+001	8.890011e+000	-7.801990e+001	-2.782930e+001	-1.031466e+002	-9.107370e+000	-1.033265e+000
1440760000	-4.792466e+000	7.927061e+001	8.373372e+000	-8.066235e+001	-2.730764e+001	-1.048184e+002	-9.583651e+000	-1.649916e+001
1470755000	-4.474998e+000	7.523415e+001	7.930610e+000	-7.979343e+001	-2.694662e+001	-1.056945e+002	-1.018895e+001	-3.441048e+001
1500750000	-4.187646e+000	7.032557e+001	8.217894e+000	-7.916349e+001	-2.636637e+001	-1.053056e+002	-1.106634e+001	-5.360442e+001
1530745000	-4.017970e+000	6.445505e+001	8.524961e+000	-8.249398e+001	-2.487254e+001	-1.060242e+002	-1.218006e+001	-7.201268e+001
1560740000	-4.039111e+000	5.903855e+001	8.577929e+000	-8.504069e+001	-2.374454e+001	-1.153738e+002	-1.292706e+001	-8.910121e+001
1590735000	-4.022659e+000	5.419506e+001	8.982835e+000	-8.828257e+001	-2.363790e+001	-1.213501e+002	-1.347317e+001	-1.064954e+002
1620730000	-3.955473e+000	4.917550e+001	9.102725e+000	-9.423961e+001	-2.294300e+001	-1.232028e+002	-1.378101e+001	-1.223511e+002
1650725000	-3.934880e+000	4.364473e+001	8.876637e+000	-9.863701e+001	-2.176492e+001	-1.306624e+002	-1.369450e+001	-1.349071e+002
1680720000	-4.036875e+000	3.763624e+001	8.782361e+000	-1.014195e+002	-2.135601e+001	-1.400481e+002	-1.287651e+001	-1.468290e+002
1710715000	-4.272550e+000	3.223970e+001	8.834882e+000	-1.047230e+002	-2.117793e+001	-1.466834e+002	-1.174317e+001	-1.613940e+002
1740710000	-4.406320e+000	2.755367e+001	8.710904e+000	-1.085393e+002	-2.076494e+001	-1.517794e+002	-1.110471e+001	-1.764901e+002
1770705000	-4.406513e+000	2.177349e+001	8.504975e+000	-1.095738e+002	-2.004295e+001	-1.595101e+002	-1.046393e+001	1.734693e+002
1800700000	-4.680962e+000	1.448614e+001	8.927026e+000	-1.099599e+002	-1.986626e+001	-1.695118e+002	-9.154852e+000	1.620029e+002
1830695000	-5.219078e+000	9.121767e+000	9.255287e+000	-1.137812e+002	-1.993598e+001	-1.761648e+002	-8.158776e+000	1.455010e+002
1860690000	-5.541750e+000	4.894267e+000	9.491926e+000	-1.144894e+002	-1.961662e+001	1.767141e+002	-8.157731e+000	1.305361e+002
1890685000	-5.918355e+000	-2.022464e+000	1.055073e+001	-1.170997e+002	-1.974281e+001	1.668530e+002	-7.956309e+000	1.189267e+002
1920680000	-6.753470e+000	-7.203102e+000	1.115876e+001	-1.246665e+002	-2.026573e+001	1.613382e+002	-7.884688e+000	1.053285e+002
1950675000	-7.400075e+000	-9.181856e+000	1.151845e+001	-1.301485e+002	-2.038728e+001	1.576457e+002	-8.601674e+000	9.155798e+001
1980670000	-7.588075e+000	-1.152247e+001	1.208881e+001	-1.372161e+002	-2.038339e+001	1.526943e+002	-9.737772e+000	8.324020e+001
2010665000	-7.711395e+000	-1.549056e+001	1.218970e+001	-1.460824e+002	-2.060459e+001	1.492701e+002	-1.076996e+001	7.947644e+001
2040660000	-7.747498e+000	-2.079525e+001	1.186356e+001	-1.521947e+002	-2.039680e+001	1.488854e+002	-1.141306e+001	7.962054e+001
2070655000	-7.859390e+000	-2.820141e+001	1.179533e+001	-1.545374e+002	-1.942292e+001	1.456161e+002	-1.126453e+001	8.190956e+001
2100650000	-7.987350e+000	-3.762398e+001	1.227227e+001	-1.582206e+002	-1.892475e+001	1.379903e+002	-1.046673e+001	8.117102e+001
2130645000	-8.204590e+000	-4.890891e+001	1.233335e+001	-1.635667e+002	-1.858665e+001	1.348621e+002	-9.252290e+000	7.968720e+001
2160640000	-8.501078e+000	-6.481864e+001	1.239322e+001	-1.621407e+002	-1.717584e+001	1.298742e+002	-7.325045e+000	7.296279e+001
2190635000	-8.724831e+000	-8.855676e+001	1.453829e+001	-1.607528e+002	-1.601227e+001	1.177636e+002	-4.900789e+000	5.887564e+001
2220630000	-9.599202e+000	-1.259703e+002	1.632216e+001	-1.759791e+002	-1.507591e+001	1.046255e+002	-3.090214e+000	3.373021e+001
2250625000	-1.043391e+001	-1.741836e+002	1.710529e+001	1.749187e+002	-1.458410e+001	8.490852e+001	-2.434470e+000	3.534799e+000
2280620000	-9.301746e+000	1.324678e+002	1.902203e+001	1.553165e+002	-1.532279e+001	6.511042e+001	-2.015219e+000	-3.055810e+001
2310615000	-8.419439e+000	8.051359e+001	1.797623e+001	1.301975e+002	-1.712364e+001	4.605897e+001	-3.133743e+000	-7.243041e+001
2340610000	-9.411252e+000	4.520901e+001	1.633044e+001	1.201579e+002	-2.024507e+001	3.924635e+001	-5.794622e+000	-1.072743e+002
2370605000	-1.038089e+001	3.019647e+001	1.589384e+001	1.120515e+002	-2.180198e+001	4.211019e+001	-7.242029e+000	-1.305647e+002
2400600000	-1.041754e+001	1.771967e+001	1.499297e+001	1.004079e+002	-2.261118e+001	4.320254e+001	-7.426355e+000	-1.548743e+002
2430595000	-1.110002e+001	5.122969e+000	1.384787e+001	9.565051e+001	-2.309688e+001	4.339043e+001	-7.665361e+000	-1.772073e+002
2460590000	-1.214843e+001	-1.995497e+000	1.369464e+001	9.032177e+001	-2.340868e+001	4.326077e+001	-7.624152e+000	1.661735e+002
2490585000	-1.283409e+001	-5.343260e+000	1.316368e+001	8.173207e+001	-2.344205e+001	4.282548e+001	-7.161472e+000	1.524713e+002
2520580000	-1.343978e+001	-9.466534e+000	1.250111e+001	7.584007e+001	-2.324483e+001	4.065130e+001	-6.613097e+000	1.396204e+002
2550575000	-1.436450e+001	-1.127849e+001	1.207510e+001	7.084920e+001	-2.313035e+001	3.667638e+001	-6.179745e+000	1.283618e+002
2580570000	-1.501382e+001	-1.111923e+001	1.205758e+001	6.470293e+001	-2.319797e+001	3.205294e+001	-5.718700e+000	1.186641e+002
2610565000	-1.543669e+001	-1.114207e+001	1.150879e+001	5.374847e+001	-2.332339e+001	2.854195e+001	-5.225414e+000	1.097786e+002
2640560000	-1.619802e+001	-1.307338e+001	1.018894e+001	5.089362e+001	-2.324816e+001	2.550827e+001	-4.787161e+000	1.005207e+002
2670555000	-1.703492e+001	-9.186641e+000	1.080932e+001	4.932603e+001	-2.319230e+001	2.037946e+001	-4.446728e+000	9.246403e+001
2700550000	-1.740501e+001	-4.842431e+000	1.041197e+001	3.457513e+001	-2.339430e+001	1.615123e+001	-4.220722e+000	8.480307e+001
2730545000	-1.778875e+001	-1.948420e+000	8.692565e+000	3.264156e+001	-2.340565e+001	1.343081e+001	-3.908623e+000	7.744244e+001
2760540000	-1.872318e+001	7.025195e+000	9.437566e+000	3.377093e+001	-2.317730e+001	9.832962e+000	-3.710786e+000	7.049051e+001
2790535000	-1.782708e+001	2.218565e+001	9.448371e+000	1.971236e+001	-2.293185e+001	4.667057e+000	-3.601876e+000	6.378214e+001
2820530000	-1.591337e+001	2.631222e+001	8.008111e+000	1.467736e+001	-2.286078e+001	-1.100598e+000	-3.432701e+000	5.809516e+001
2850525000	-1.449245e+001	2.633472e+001	8.061592e+000	1.546475e+001	-2.272532e+001	-6.256976e+000	-3.262597e+000	5.234388e+001
2880520000	-1.317469e+001	2.464963e+001	8.630491e+000	6.179482e+000	-2.257699e+001	-1.271968e+001	-3.062910e+000	4.661291e+001
2910515000	-1.206007e+001	2.154192e+001	7.750679e+000	-5.185528e+000	-2.265094e+001	-2.002666e+001	-2.918719e+000	4.103341e+001
2940510000	-1.120394e+001	1.613193e+001	6.651177e+000	-6.467277e+000	-2.289691e+001	-2.503235e+001	-2.768507e+000	3.546492e+001
2970505000	-1.072459e+001	1.100877e+001	7.493884e+000	-9.186975e+000	-2.266347e+001	-3.065933e+001	-2.619756e+000	3.009876e+001
3000500000	-1.044247e+001	7.139485e+000	7.108946e+000	-2.550828e+001	-2.285783e+001	-3.992634e+001	-2.531273e+000	2.467773e+001
3030495000	-1.004311e+001	4.271825e+000	5.211795e+000	-2.842656e+001	-2.351683e+001	-4.424759e+001	-2.402153e+000	1.933205e+001
3060490000	-9.678147e+000	9.304209e-001	5.821600e+000	-2.690594e+001	-2.322897e+001	-4.726893e+001	-2.329767e+000	1.421938e+001
3090485000	-9.445168e+000	-2.703348e+000	5.836698e+000	-4.171283e+001	-2.310892e+001	-5.730687e+001	-2.272065e+000	9.113683e+000
3120480000	-9.238394e+000	-5.429817e+000	4.213929e+000	-4.727881e+001	-2.390273e+001	-6.423624e+001	-2.184594e+000	4.246800e+000
3150475000	-8.948756e+000	-7.722389e+000	4.041410e+000	-4.748351e+001	-2.417146e+001	-6.670207e+001	-2.130427e+000	-7.114224e-001
3180470000	-8.588407e+000	-1.001719e+001	4.131322e+000	-5.488871e+001	-2.385226e+001	-7.261153e+001	-2.075152e+000	-5.554519e+000
3210465000	-8.237179e+000	-1.246074e+001	3.615779e+000	-6.425626e+001	-2.404254e+001	-8.251735e+001	-2.043615e+000	-1.019530e+001
3240460000	-7.881485e+000	-1.475359e+001	2.301008e+000	-7.032551e+001	-2.496302e+001	-8.889210e+001	-2.000567e+000	-1.484763e+001
3270455000	-7.520714e+000	-1.698426e+001	1.914491e+000	-6.765921e+001	-2.519649e+001	-9.017600e+001	-1.984549e+000	-1.939310e+001
3300450000	-7.070816e+000	-1.986767e+001	2.858757e+000	-7.721579e+001	-2.472873e+001	-9.820015e+001	-1.957208e+000	-2.403537e+001
3330445000	-6.624073e+000	-2.302903e+001	1.246283e+000	-9.005396e+001	-2.561147e+001	-1.090159e+002	-1.928381e+000	-2.844154e+001
3360440000	-6.203686e+000	-2.633865e+001	1.701708e-001	-8.551146e+001	-2.655055e+001	-1.101222e+002	-1.916085e+000	-3.281789e+001
3390435000	-5.747763e+000	-2.968543e+001	1.421089e+000	-9.123890e+001	-2.606563e+001	-1.137157e+002	-1.891902e+000	-3.708365e+001
3420430000	-5.309677e+000	-3.332181e+001	5.248310e-001	-1.064241e+002	-2.634272e+001	-1.248508e+002	-1.886138e+000	-4.132660e+001
3450425000	-4.897648e+000	-3.737066e+001	-9.983149e-001	-1.090331e+002	-2.730089e+001	-1.311086e+002	-1.877902e+000	-4.559690e+001
3480420000	-4.533692e+000	-4.160384e+001	-1.049177e+000	-1.094825e+002	-2.777969e+001	-1.333600e+002	-1.875690e+000	-4.971657e+001
3510415000	-4.188952e+000	-4.599140e+001	-7.402799e-001	-1.182819e+002	-2.754745e+001	-1.389555e+002	-1.874531e+000	-5.378940e+001
3540410000	-3.858291e+000	-5.035055e+001	-1.813995e+000	-1.303514e+002	-2.811264e+001	-1.499801e+002	-1.870328e+000	-5.780580e+001
3570405000	-3.560826e+000	-5.473371e+001	-3.283903e+000	-1.308975e+002	-2.941687e+001	-1.535578e+002	-1.866225e+000	-6.185230e+001
3600400000	-3.270659e+000	-5.910887e+001	-2.591565e+000	-1.327237e+002	-2.914261e+001	-1.540048e+002	-1.851994e+000	-6.570733e+001
3630395000	-3.007913e+000	-6.355494e+001	-3.019558e+000	-1.488038e+002	-2.896483e+001	-1.668654e+002	-1.834976e+000	-6.948399e+001
3660390000	-2.741020e+000	-6.810175e+001	-4.963592e+000	-1.536494e+002	-3.045732e+001	-1.754217e+002	-1.819503e+000	-7.325486e+001
3690385000	-2.489150e+000	-7.256810e+001	-5.160416e+000	-1.540568e+002	-3.111101e+001	-1.762834e+002	-1.788691e+000	-7.700905e+001
3720380000	-2.250554e+000	-7.706257e+001	-5.364935e+000	-1.636309e+002	-3.096379e+001	1.765961e+002	-1.746981e+000	-8.072376e+001
3750375000	-2.028065e+000	-8.161006e+001	-6.346190e+000	-1.730013e+002	-3.171062e+001	1.646204e+002	-1.698741e+000	-8.441450e+001
3780370000	-1.816463e+000	-8.631874e+001	-7.939500e+000	-1.799140e+002	-3.353590e+001	1.581102e+002	-1.647743e+000	-8.814964e+001
3810365000	-1.616816e+000	-9.104969e+001	-8.879028e+000	-1.775300e+002	-3.421579e+001	1.601803e+002	-1.584606e+000	-9.191552e+001
3840360000	-1.430459e+000	-9.580518e+001	-8.003305e+000	1.733921e+002	-3.347145e+001	1.497721e+002	-1.509633e+000	-9.570443e+001
3870355000	-1.264470e+000	-1.005527e+002	-1.021012e+001	1.545889e+002	-3.580323e+001	1.326642e+002	-1.432769e+000	-9.950988e+001
3900350000	-1.131454e+000	-1.054010e+002	-1.295104e+001	1.614371e+002	-3.825537e+001	1.390863e+002	-1.365780e+000	-1.033644e+002
3930345000	-1.013494e+000	-1.102708e+002	-1.160560e+001	1.629313e+002	-3.735050e+001	1.385595e+002	-1.297285e+000	-1.072764e+002
3960340000	-9.061746e-001	-1.150416e+002	-1.238915e+001	1.409068e+002	-3.847825e+001	1.208029e+002	-1.228361e+000	-1.111891e+002
3990335000	-8.180757e-001	-1.197262e+002	-1.591023e+001	1.368847e+002	-4.193340e+001	1.190027e+002	-1.170575e+000	-1.151397e+002
4020330000	-7.474503e-001	-1.243471e+002	-1.666714e+001	1.469590e+002	-4.275735e+001	1.308864e+002	-1.124685e+000	-1.190517e+002
4050325000	-6.905991e-001	-1.289373e+002	-1.558470e+001	1.377768e+002	-4.191234e+001	1.245275e+002	-1.078614e+000	-1.229473e+002
4080320000	-6.429460e-001	-1.334234e+002	-1.778076e+001	1.168746e+002	-4.355047e+001	1.110853e+002	-1.027390e+000	-1.267990e+002
4110315000	-5.977941e-001	-1.377884e+002	-2.151352e+001	1.207513e+002	-4.655102e+001	1.171997e+002	-9.769233e-001	-1.305974e+002
4140310000	-5.606812e-001	-1.421651e+002	-2.083764e+001	1.283233e+002	-4.576221e+001	1.221114e+002	-9.316547e-001	-1.343496e+002
4170305000	-5.318950e-001	-1.465662e+002	-2.135699e+001	1.037512e+002	-4.683353e+001	1.080585e+002	-8.817846e-001	-1.381263e+002
4200300000	-5.040529e-001	-1.508944e+002	-2.634345e+001	9.720173e+001	-4.974769e+001	1.104138e+002	-8.295712e-001	-1.419210e+002
4230295000	-4.726568e-001	-1.550864e+002	-2.774249e+001	1.093429e+002	-5.039563e+001	1.206466e+002	-7.748206e-001	-1.457099e+002
4260290000	-4.479347e-001	-1.592325e+002	-2.860424e+001	9.479655e+001	-5.128714e+001	1.161735e+002	-7.232047e-001	-1.495384e+002
4290285000	-4.357219e-001	-1.634221e+002	-3.345846e+001	8.637655e+001	-5.281302e+001	1.242178e+002	-6.799930e-001	-1.533186e+002
4320280000	-4.248722e-001	-1.675659e+002	-3.731962e+001	9.525936e+001	-5.282356e+001	1.273810e+002	-6.380697e-001	-1.571100e+002
4350275000	-4.101215e-001	-1.716108e+002	-4.167108e+001	9.829288e+001	-5.241724e+001	1.300616e+002	-5.946928e-001	-1.608993e+002
4380270000	-4.024363e-001	-1.755446e+002	-4.916592e+001	1.200392e+002	-5.268308e+001	1.293628e+002	-5.622717e-001	-1.646738e+002
4410265000	-4.018091e-001	-1.795189e+002	-5.059912e+001	-1.616988e+002	-5.361302e+001	1.268742e+002	-5.323075e-001	-1.683830e+002
4440260000	-3.980490e-001	1.764527e+002	-4.535065e+001	-1.335802e+002	-5.298777e+001	1.302231e+002	-5.066124e-001	-1.720611e+002
4470255000	-3.866850e-001	1.724992e+002	-4.183200e+001	-1.310421e+002	-5.167962e+001	1.201620e+002	-4.840214e-001	-1.757716e+002
4500250000	-3.753118e-001	1.686600e+002	-4.124453e+001	-1.308667e+002	-5.327775e+001	1.080152e+002	-4.698114e-001	-1.794458e+002
4530245000	-3.690960e-001	1.648153e+002	-4.000685e+001	-1.217265e+002	-5.436721e+001	1.052413e+002	-4.554363e-001	1.769533e+002
4560240000	-3.683050e-001	1.608896e+002	-3.852253e+001	-1.277943e+002	-5.403311e+001	9.548669e+001	-4.351432e-001	1.733608e+002
