!Agilent Technologies,E8362C,MY49020251,A.08.50.10
!Agilent E8362C: A.08.50.10
!Date: Tuesday, May 17, 2016 04:37:11
!Correction: S11(Full 1 Port(1)) 
!S1P File: Measurement: S11:
# Hz S  dB   R 50
100000000 -9.803180e-002 1.589288e+002
112250000 -7.352999e-002 1.553456e+002
124500000 -1.078103e-001 1.537496e+002
136750000 -1.203351e-002 1.515023e+002
149000000 2.646543e-002 1.480923e+002
161250000 -1.058892e-001 1.456268e+002
173500000 -1.368035e-001 1.434467e+002
185750000 -7.511380e-002 1.408876e+002
198000000 -2.171241e-002 1.379991e+002
210250000 -1.085224e-001 1.349545e+002
222500000 -1.764719e-001 1.326783e+002
234750000 -8.097475e-002 1.305732e+002
247000000 5.380777e-003 1.271781e+002
259250000 -7.233647e-002 1.243712e+002
271500000 -1.303844e-001 1.224233e+002
283750000 -6.028483e-002 1.198408e+002
296000000 -4.179190e-002 1.165938e+002
308250000 -1.319748e-001 1.136352e+002
320500000 -1.792223e-001 1.113887e+002
332750000 -6.030552e-002 1.086996e+002
345000000 -6.582415e-002 1.051616e+002
357250000 -1.581238e-001 1.021905e+002
369500000 -2.010077e-001 1.002119e+002
381750000 -1.201903e-001 9.764751e+001
394000000 -6.824020e-002 9.413407e+001
406250000 -1.868794e-001 9.144543e+001
418500000 -1.487196e-001 8.907761e+001
430750000 -6.159661e-002 8.627753e+001
443000000 -1.088270e-001 8.280664e+001
455250000 -1.736544e-001 7.986539e+001
467500000 -1.436987e-001 7.741278e+001
479750000 -9.341788e-002 7.460487e+001
492000000 -8.659901e-002 7.089989e+001
504250000 -2.096150e-001 6.802823e+001
516500000 -1.602551e-001 6.517036e+001
528750000 -1.521234e-001 6.255668e+001
541000000 -1.256691e-001 5.891355e+001
553250000 -1.390707e-001 5.558384e+001
565500000 -1.714058e-001 5.308909e+001
577750000 -1.368619e-001 4.975138e+001
590000000 -1.443828e-001 4.633352e+001
602250000 -1.569080e-001 4.331021e+001
614500000 -1.657258e-001 4.007913e+001
626750000 -1.331527e-001 3.669424e+001
639000000 -1.189417e-001 3.346504e+001
651250000 -1.750513e-001 3.031657e+001
663500000 -1.639432e-001 2.720348e+001
675750000 -1.547857e-001 2.396375e+001
688000000 -1.319264e-001 2.035376e+001
700250000 -1.843828e-001 1.687158e+001
712500000 -1.725785e-001 1.335067e+001
724750000 -2.119074e-001 1.023193e+001
737000000 -1.765051e-001 6.912581e+000
749250000 -1.693627e-001 3.534555e+000
761500000 -1.687174e-001 7.716143e-002
773750000 -1.667801e-001 -3.421890e+000
786000000 -1.356502e-001 -6.722070e+000
798250000 -1.513728e-001 -1.036510e+001
810500000 -1.737294e-001 -1.375955e+001
822750000 -2.251054e-001 -1.739869e+001
835000000 -1.934360e-001 -2.061691e+001
847250000 -1.658975e-001 -2.427034e+001
859500000 -1.817804e-001 -2.782682e+001
871750000 -1.811313e-001 -3.113603e+001
884000000 -1.978831e-001 -3.504319e+001
896250000 -1.504984e-001 -3.829968e+001
908500000 -1.752593e-001 -4.168715e+001
920750000 -1.623833e-001 -4.534376e+001
933000000 -1.675973e-001 -4.890873e+001
945250000 -1.667277e-001 -5.218566e+001
957500000 -1.685228e-001 -5.570446e+001
969750000 -1.638083e-001 -5.931989e+001
982000000 -1.859504e-001 -6.272931e+001
994250000 -1.907663e-001 -6.631648e+001
1006500000 -1.678453e-001 -6.970047e+001
1018750000 -1.696242e-001 -7.305865e+001
1031000000 -2.083633e-001 -7.640969e+001
1043250000 -1.742274e-001 -8.006085e+001
1055500000 -1.744196e-001 -8.303254e+001
1067750000 -1.686815e-001 -8.662268e+001
1080000000 -1.726899e-001 -8.994687e+001
1092250000 -1.770617e-001 -9.320645e+001
1104500000 -1.729182e-001 -9.633958e+001
1116750000 -1.814677e-001 -9.959184e+001
1129000000 -1.942275e-001 -1.028402e+002
1141250000 -1.802374e-001 -1.061161e+002
1153500000 -1.769212e-001 -1.092245e+002
1165750000 -1.714445e-001 -1.123640e+002
1178000000 -1.764558e-001 -1.156086e+002
1190250000 -1.581349e-001 -1.186137e+002
1202500000 -1.888416e-001 -1.216947e+002
1214750000 -1.650233e-001 -1.248124e+002
1227000000 -1.802636e-001 -1.279030e+002
1239250000 -1.838720e-001 -1.308497e+002
1251500000 -1.842778e-001 -1.336432e+002
1263750000 -1.744616e-001 -1.364963e+002
1276000000 -1.753663e-001 -1.396066e+002
1288250000 -1.884827e-001 -1.424366e+002
1300500000 -2.071655e-001 -1.451163e+002
1312750000 -1.860823e-001 -1.480749e+002
1325000000 -1.924238e-001 -1.507377e+002
1337250000 -1.809741e-001 -1.535935e+002
1349500000 -2.033260e-001 -1.563019e+002
1361750000 -1.954567e-001 -1.590800e+002
1374000000 -1.851449e-001 -1.616191e+002
1386250000 -1.919356e-001 -1.643466e+002
1398500000 -1.977509e-001 -1.670338e+002
1410750000 -1.991247e-001 -1.695125e+002
1423000000 -1.775502e-001 -1.721427e+002
1435250000 -2.169932e-001 -1.745410e+002
1447500000 -1.981801e-001 -1.771320e+002
1459750000 -1.912907e-001 -1.796846e+002
1472000000 -1.979172e-001 1.778193e+002
1484250000 -2.066706e-001 1.755518e+002
1496500000 -2.219160e-001 1.731118e+002
1508750000 -1.877069e-001 1.705377e+002
1521000000 -2.017794e-001 1.682571e+002
1533250000 -1.953426e-001 1.658453e+002
1545500000 -2.330386e-001 1.633791e+002
1557750000 -2.458706e-001 1.614601e+002
1570000000 -1.926893e-001 1.592336e+002
1582250000 -1.827392e-001 1.566237e+002
1594500000 -2.481943e-001 1.541708e+002
1606750000 -2.716462e-001 1.523677e+002
1619000000 -2.019383e-001 1.502576e+002
1631250000 -1.986684e-001 1.475071e+002
1643500000 -2.676779e-001 1.453682e+002
1655750000 -2.612057e-001 1.435714e+002
1668000000 -2.252083e-001 1.415190e+002
1680250000 -1.984037e-001 1.390904e+002
1692500000 -2.639686e-001 1.368337e+002
1704750000 -2.892691e-001 1.351589e+002
1717000000 -1.936945e-001 1.327272e+002
1729250000 -2.473122e-001 1.304652e+002
1741500000 -3.271874e-001 1.285038e+002
1753750000 -3.110644e-001 1.267443e+002
1766000000 -2.494278e-001 1.248343e+002
1778250000 -2.432753e-001 1.222416e+002
1790500000 -3.248894e-001 1.205999e+002
1802750000 -2.832900e-001 1.189343e+002
1815000000 -2.261370e-001 1.165904e+002
1827250000 -2.640949e-001 1.142815e+002
1839500000 -3.352690e-001 1.125935e+002
1851750000 -2.977045e-001 1.108830e+002
1864000000 -2.409239e-001 1.086465e+002
1876250000 -3.045964e-001 1.062882e+002
1888500000 -3.771306e-001 1.045885e+002
1900750000 -2.832307e-001 1.030584e+002
1913000000 -2.775649e-001 1.006980e+002
1925250000 -3.227564e-001 9.845526e+001
1937500000 -3.506916e-001 9.692373e+001
1949750000 -3.062660e-001 9.517254e+001
1962000000 -3.142870e-001 9.291416e+001
1974250000 -3.581228e-001 9.048114e+001
1986500000 -4.106142e-001 8.901478e+001
1998750000 -3.379754e-001 8.735691e+001
2011000000 -3.035327e-001 8.484135e+001
2023250000 -4.155296e-001 8.287803e+001
2035500000 -4.340529e-001 8.112627e+001
2047750000 -3.973401e-001 7.922089e+001
2060000000 -3.674619e-001 7.664229e+001
2072250000 -4.597257e-001 7.444387e+001
2084500000 -5.157606e-001 7.299782e+001
2096750000 -4.299662e-001 7.112478e+001
2109000000 -4.713303e-001 6.832520e+001
2121250000 -5.642387e-001 6.598952e+001
2133500000 -5.880812e-001 6.442042e+001
2145750000 -5.025335e-001 6.212454e+001
2158000000 -5.789420e-001 5.921663e+001
2170250000 -6.528606e-001 5.689428e+001
2182500000 -6.753941e-001 5.492635e+001
2194750000 -6.165037e-001 5.228659e+001
2207000000 -6.834494e-001 4.882021e+001
2219250000 -8.415113e-001 4.619075e+001
2231500000 -8.788777e-001 4.378367e+001
2243750000 -8.811077e-001 4.026713e+001
2256000000 -1.010656e+000 3.610665e+001
2268250000 -1.215170e+000 3.229520e+001
2280500000 -1.361868e+000 2.833164e+001
2292750000 -1.480431e+000 2.289182e+001
2305000000 -1.849873e+000 1.678912e+001
2317250000 -2.317809e+000 1.042970e+001
2329500000 -2.895788e+000 2.563298e+000
2341750000 -3.797305e+000 -7.906879e+000
2354000000 -5.249763e+000 -2.128925e+001
2366250000 -7.312257e+000 -4.042830e+001
2378500000 -1.047571e+001 -7.336884e+001
2390750000 -1.293599e+001 -1.355986e+002
2403000000 -9.513253e+000 1.673641e+002
2415250000 -6.086198e+000 1.363955e+002
2427500000 -4.009107e+000 1.165317e+002
2439750000 -2.749624e+000 1.018608e+002
2452000000 -2.012675e+000 9.046828e+001
2464250000 -1.583701e+000 8.162350e+001
2476500000 -1.287183e+000 7.471585e+001
2488750000 -1.096570e+000 6.902037e+001
2501000000 -9.368325e-001 6.419404e+001
2513250000 -8.300577e-001 6.004128e+001
2525500000 -7.189958e-001 5.626000e+001
2537750000 -6.673033e-001 5.272551e+001
2550000000 -5.936309e-001 4.977858e+001
2562250000 -5.899476e-001 4.697482e+001
2574500000 -5.400491e-001 4.430944e+001
2586750000 -5.218679e-001 4.160189e+001
2599000000 -5.164776e-001 3.930522e+001
2611250000 -4.730405e-001 3.712977e+001
2623500000 -4.449291e-001 3.467254e+001
2635750000 -4.736916e-001 3.231604e+001
2648000000 -4.802693e-001 3.060635e+001
2660250000 -4.069526e-001 2.878840e+001
2672500000 -3.809824e-001 2.666009e+001
2684750000 -3.902660e-001 2.455969e+001
2697000000 -4.167496e-001 2.289391e+001
2709250000 -3.995696e-001 2.139612e+001
2721500000 -3.648947e-001 1.923844e+001
2733750000 -3.873041e-001 1.726463e+001
2746000000 -4.057576e-001 1.592901e+001
2758250000 -3.594418e-001 1.416542e+001
2770500000 -3.389775e-001 1.215063e+001
2782750000 -3.861214e-001 1.032822e+001
2795000000 -3.823151e-001 9.287060e+000
2807250000 -3.444763e-001 7.501752e+000
2819500000 -3.104349e-001 5.639286e+000
2831750000 -3.788720e-001 4.128362e+000
2844000000 -3.697043e-001 2.768841e+000
2856250000 -3.295840e-001 1.004260e+000
2868500000 -3.287345e-001 -7.655821e-001
2880750000 -3.752064e-001 -2.506600e+000
2893000000 -3.748354e-001 -3.604677e+000
2905250000 -3.204110e-001 -5.308263e+000
2917500000 -3.290515e-001 -7.125872e+000
2929750000 -3.469551e-001 -8.690268e+000
2942000000 -3.480704e-001 -9.783017e+000
2954250000 -3.062775e-001 -1.151251e+001
2966500000 -3.496875e-001 -1.318692e+001
2978750000 -3.549847e-001 -1.469193e+001
2991000000 -3.643133e-001 -1.590261e+001
3003250000 -3.364270e-001 -1.772027e+001
3015500000 -3.564111e-001 -1.923742e+001
3027750000 -3.385630e-001 -2.056685e+001
3040000000 -3.467363e-001 -2.212831e+001
3052250000 -4.193435e-001 -2.388298e+001
3064500000 -4.080736e-001 -2.466830e+001
3076750000 -2.660155e-001 -2.630182e+001
3089000000 -3.058676e-001 -2.877183e+001
3101250000 -4.476533e-001 -2.968866e+001
3113500000 -3.945511e-001 -3.068681e+001
3125750000 -2.773211e-001 -3.253366e+001
3138000000 -3.534413e-001 -3.465431e+001
3150250000 -4.608727e-001 -3.571575e+001
3162500000 -3.908764e-001 -3.649322e+001
3174750000 -2.721406e-001 -3.851476e+001
3187000000 -3.364979e-001 -4.072918e+001
3199250000 -4.685216e-001 -4.170202e+001
3211500000 -3.613754e-001 -4.262129e+001
3223750000 -2.640116e-001 -4.479543e+001
3236000000 -3.912030e-001 -4.671965e+001
3248250000 -4.726470e-001 -4.756152e+001
3260500000 -3.667819e-001 -4.843668e+001
3272750000 -3.192855e-001 -5.079703e+001
3285000000 -4.306890e-001 -5.261295e+001
3297250000 -4.829852e-001 -5.325177e+001
3309500000 -3.535614e-001 -5.429796e+001
3321750000 -2.946090e-001 -5.685765e+001
3334000000 -4.228003e-001 -5.879784e+001
3346250000 -4.808793e-001 -5.930699e+001
3358500000 -3.683378e-001 -6.028911e+001
3370750000 -3.221221e-001 -6.286745e+001
3383000000 -4.700323e-001 -6.474716e+001
3395250000 -4.751956e-001 -6.507008e+001
3407500000 -3.312763e-001 -6.676676e+001
3419750000 -3.357142e-001 -6.920769e+001
3432000000 -4.706382e-001 -7.083277e+001
3444250000 -4.929182e-001 -7.144604e+001
3456500000 -3.559442e-001 -7.303362e+001
3468750000 -4.029713e-001 -7.566590e+001
3481000000 -5.520291e-001 -7.676711e+001
3493250000 -5.029854e-001 -7.765886e+001
3505500000 -3.954463e-001 -7.940558e+001
3517750000 -4.370839e-001 -8.184528e+001
3530000000 -5.773958e-001 -8.317851e+001
3542250000 -5.258797e-001 -8.378211e+001
3554500000 -4.220918e-001 -8.605518e+001
3566750000 -5.266499e-001 -8.829307e+001
3579000000 -6.356014e-001 -8.943198e+001
3591250000 -5.568472e-001 -9.029519e+001
3603500000 -4.617589e-001 -9.249026e+001
3615750000 -5.863493e-001 -9.477291e+001
3628000000 -6.868975e-001 -9.583397e+001
3640250000 -6.011778e-001 -9.696265e+001
3652500000 -5.535172e-001 -9.921358e+001
3664750000 -6.993161e-001 -1.015174e+002
3677000000 -7.981548e-001 -1.023938e+002
3689250000 -7.168724e-001 -1.035378e+002
3701500000 -6.657410e-001 -1.061750e+002
3713750000 -8.721418e-001 -1.081216e+002
3726000000 -9.677244e-001 -1.090443e+002
3738250000 -8.960418e-001 -1.104162e+002
3750500000 -9.105841e-001 -1.129163e+002
3762750000 -1.128720e+000 -1.146302e+002
3775000000 -1.216379e+000 -1.152090e+002
3787250000 -1.151997e+000 -1.168930e+002
3799500000 -1.319668e+000 -1.187300e+002
3811750000 -1.462772e+000 -1.201797e+002
3824000000 -1.533738e+000 -1.213587e+002
3836250000 -1.640352e+000 -1.222380e+002
3848500000 -1.660993e+000 -1.234227e+002
3860750000 -1.846021e+000 -1.239249e+002
3873000000 -1.803273e+000 -1.235778e+002
3885250000 -1.669830e+000 -1.245145e+002
3897500000 -1.656508e+000 -1.262059e+002
3909750000 -1.694407e+000 -1.266986e+002
3922000000 -1.566212e+000 -1.269754e+002
3934250000 -1.321935e+000 -1.286829e+002
3946500000 -1.290649e+000 -1.308258e+002
3958750000 -1.295624e+000 -1.318195e+002
3971000000 -1.099808e+000 -1.328826e+002
3983250000 -9.438498e-001 -1.350773e+002
3995500000 -9.687553e-001 -1.376530e+002
4007750000 -1.006298e+000 -1.388997e+002
4020000000 -8.290855e-001 -1.402438e+002
4032250000 -7.441797e-001 -1.430665e+002
4044500000 -8.121819e-001 -1.453947e+002
4056750000 -8.659828e-001 -1.465719e+002
4069000000 -7.309968e-001 -1.477896e+002
4081250000 -6.281223e-001 -1.506107e+002
4093500000 -7.302950e-001 -1.529517e+002
4105750000 -7.750425e-001 -1.539480e+002
4118000000 -6.074703e-001 -1.556527e+002
4130250000 -5.518476e-001 -1.586328e+002
4142500000 -7.012067e-001 -1.608453e+002
4154750000 -7.278838e-001 -1.618207e+002
4167000000 -5.735306e-001 -1.634033e+002
4179250000 -5.410358e-001 -1.664300e+002
4191500000 -6.839586e-001 -1.683762e+002
4203750000 -6.705517e-001 -1.693185e+002
4216000000 -5.171255e-001 -1.715964e+002
4228250000 -5.303934e-001 -1.745273e+002
4240500000 -6.972477e-001 -1.764751e+002
4252750000 -6.628761e-001 -1.774232e+002
4265000000 -4.992239e-001 -1.797959e+002
4277250000 -5.756650e-001 1.772232e+002
4289500000 -7.223595e-001 1.756279e+002
4301750000 -6.601993e-001 1.747233e+002
4314000000 -5.073504e-001 1.721466e+002
4326250000 -6.020833e-001 1.690490e+002
4338500000 -7.369627e-001 1.676986e+002
4350750000 -6.511927e-001 1.665966e+002
4363000000 -5.209317e-001 1.638359e+002
4375250000 -6.085868e-001 1.607826e+002
4387500000 -7.388796e-001 1.593382e+002
4399750000 -6.057323e-001 1.578609e+002
4412000000 -5.352521e-001 1.548527e+002
4424250000 -6.567763e-001 1.520410e+002
4436500000 -7.609817e-001 1.504848e+002
4448750000 -6.280713e-001 1.491508e+002
4461000000 -5.758380e-001 1.462437e+002
4473250000 -7.160354e-001 1.434517e+002
4485500000 -8.173303e-001 1.423389e+002
4497750000 -6.962975e-001 1.397270e+002
4510000000 -6.990097e-001 1.374764e+002
4522250000 -7.014550e-001 1.351669e+002
4534500000 -7.198964e-001 1.330582e+002
4546750000 -7.343653e-001 1.306156e+002
4559000000 -7.990276e-001 1.280746e+002
4571250000 -7.621847e-001 1.265287e+002
4583500000 -6.703413e-001 1.237393e+002
4595750000 -7.880046e-001 1.207824e+002
4608000000 -9.042611e-001 1.189695e+002
4620250000 -8.239105e-001 1.173768e+002
4632500000 -6.728162e-001 1.142137e+002
4644750000 -8.317241e-001 1.113555e+002
4657000000 -8.853907e-001 1.097059e+002
4669250000 -8.161866e-001 1.077479e+002
4681500000 -7.495275e-001 1.045605e+002
4693750000 -9.031104e-001 1.016806e+002
4706000000 -9.828585e-001 1.001805e+002
4718250000 -8.285433e-001 9.817509e+001
4730500000 -7.769898e-001 9.464514e+001
4742750000 -9.465938e-001 9.181249e+001
4755000000 -1.042654e+000 9.039494e+001
4767250000 -8.760678e-001 8.813281e+001
4779500000 -8.929828e-001 8.439777e+001
4791750000 -1.125481e+000 8.155899e+001
4804000000 -1.018858e+000 8.002404e+001
4816250000 -1.042950e+000 7.742429e+001
4828500000 -1.058527e+000 7.475545e+001
4840750000 -1.044587e+000 7.219901e+001
4853000000 -1.057631e+000 7.032898e+001
4865250000 -9.795070e-001 6.700127e+001
4877500000 -1.140100e+000 6.356627e+001
4889750000 -1.289345e+000 6.184423e+001
4902000000 -1.165685e+000 5.943761e+001
4914250000 -1.108117e+000 5.616071e+001
4926500000 -1.304097e+000 5.293326e+001
4938750000 -1.386798e+000 5.140427e+001
4951000000 -1.283845e+000 4.916660e+001
4963250000 -1.265540e+000 4.525690e+001
4975500000 -1.486534e+000 4.201319e+001
4987750000 -1.543160e+000 4.066615e+001
5000000000 -1.391331e+000 3.811058e+001
