!Agilent Technologies,E8362C,MY49020251,A.08.50.10
!Agilent E8362C: A.08.50.10
!Date: Tuesday, May 17, 2016 04:36:41
!Correction: S11(Full 1 Port(1)) 
!S1P File: Measurement: S11:
# Hz S  dB   R 50
100000000 -1.974401e-001 1.588958e+002
112250000 -1.307262e-001 1.566628e+002
124500000 4.679799e-002 1.533659e+002
136750000 3.580657e-002 1.505320e+002
149000000 -4.477943e-002 1.485142e+002
161250000 -1.688930e-001 1.463227e+002
173500000 -6.599625e-002 1.435669e+002
185750000 -3.453583e-002 1.405620e+002
198000000 -5.899455e-002 1.382967e+002
210250000 -1.479114e-001 1.358800e+002
222500000 -1.249636e-001 1.332295e+002
234750000 -5.591867e-002 1.304605e+002
247000000 9.619722e-003 1.271169e+002
259250000 -5.591767e-002 1.254056e+002
271500000 -9.692062e-002 1.234707e+002
283750000 -2.796454e-002 1.201674e+002
296000000 1.434627e-002 1.165056e+002
308250000 -5.969833e-002 1.138015e+002
320500000 -1.747709e-001 1.123190e+002
332750000 -4.567125e-002 1.093742e+002
345000000 -5.136121e-002 1.053458e+002
357250000 -1.041564e-001 1.023615e+002
369500000 -1.544765e-001 1.009432e+002
381750000 -8.711544e-002 9.833905e+001
394000000 -2.613255e-002 9.477061e+001
406250000 -1.012748e-001 9.177756e+001
418500000 -7.585169e-002 8.881438e+001
430750000 -9.021167e-002 8.623125e+001
443000000 -1.779077e-001 8.370729e+001
455250000 -1.152848e-001 8.096758e+001
467500000 -2.222905e-002 7.734064e+001
479750000 -7.476953e-002 7.366755e+001
492000000 -2.187833e-001 7.199017e+001
504250000 -2.200706e-001 6.945963e+001
516500000 -6.430840e-003 6.601182e+001
528750000 -4.330946e-004 6.176910e+001
541000000 -1.896567e-001 5.956105e+001
553250000 -2.089291e-001 5.720121e+001
565500000 -9.472320e-002 5.396252e+001
577750000 -3.977479e-002 4.980967e+001
590000000 -1.280514e-001 4.647684e+001
602250000 -1.982916e-001 4.417521e+001
614500000 -1.843110e-001 4.126835e+001
626750000 -1.110479e-001 3.786052e+001
639000000 -2.222043e-002 3.399216e+001
651250000 -1.089858e-001 3.053906e+001
663500000 -1.988058e-001 2.792013e+001
675750000 -2.100023e-001 2.538810e+001
688000000 -6.585266e-002 2.164664e+001
700250000 1.089315e-003 1.706302e+001
712500000 -2.024801e-001 1.423939e+001
724750000 -2.575727e-001 1.151303e+001
737000000 -1.520700e-001 7.993949e+000
749250000 -4.210311e-002 4.718271e+000
761500000 -5.544673e-002 3.807432e-001
773750000 -1.946320e-001 -3.171384e+000
786000000 -1.972587e-001 -5.428404e+000
798250000 -1.166331e-001 -8.803046e+000
810500000 -6.974257e-002 -1.287579e+001
822750000 -1.302163e-001 -1.722529e+001
835000000 -2.425868e-001 -2.010212e+001
847250000 -2.379212e-001 -2.284595e+001
859500000 -9.823836e-002 -2.629217e+001
871750000 -3.076353e-002 -3.043942e+001
884000000 -1.375101e-001 -3.457148e+001
896250000 -2.513760e-001 -3.745882e+001
908500000 -1.987934e-001 -4.025495e+001
920750000 -5.938438e-002 -4.388875e+001
933000000 -6.119842e-002 -4.808932e+001
945250000 -1.675090e-001 -5.176682e+001
957500000 -2.207456e-001 -5.448793e+001
969750000 -1.379627e-001 -5.765460e+001
982000000 -6.569255e-002 -6.141690e+001
994250000 -1.122086e-001 -6.555399e+001
1006500000 -1.657379e-001 -6.897008e+001
1018750000 -2.197481e-001 -7.157372e+001
1031000000 -1.878403e-001 -7.463183e+001
1043250000 -8.467939e-002 -7.875210e+001
1055500000 -1.143794e-001 -8.246867e+001
1067750000 -1.935166e-001 -8.534655e+001
1080000000 -2.130502e-001 -8.810352e+001
1092250000 -1.267218e-001 -9.151445e+001
1104500000 -9.678978e-002 -9.528712e+001
1116750000 -1.203474e-001 -9.840917e+001
1129000000 -2.178260e-001 -1.013996e+002
1141250000 -1.745797e-001 -1.045326e+002
1153500000 -1.001249e-001 -1.076936e+002
1165750000 -8.824605e-002 -1.110124e+002
1178000000 -1.431517e-001 -1.141989e+002
1190250000 -1.685425e-001 -1.173188e+002
1202500000 -1.456648e-001 -1.203239e+002
1214750000 -1.289229e-001 -1.233105e+002
1227000000 -1.572077e-001 -1.261978e+002
1239250000 -1.490219e-001 -1.293169e+002
1251500000 -1.422718e-001 -1.321315e+002
1263750000 -1.258691e-001 -1.351307e+002
1276000000 -1.850873e-001 -1.382021e+002
1288250000 -1.850529e-001 -1.407046e+002
1300500000 -1.327495e-001 -1.435033e+002
1312750000 -8.903807e-002 -1.463872e+002
1325000000 -1.416549e-001 -1.494974e+002
1337250000 -2.142198e-001 -1.521687e+002
1349500000 -1.836872e-001 -1.543320e+002
1361750000 -1.437777e-001 -1.570427e+002
1374000000 -1.179619e-001 -1.601121e+002
1386250000 -1.802002e-001 -1.632312e+002
1398500000 -2.210283e-001 -1.654141e+002
1410750000 -1.583667e-001 -1.672484e+002
1423000000 -6.522281e-002 -1.700107e+002
1435250000 -1.193748e-001 -1.733274e+002
1447500000 -2.116061e-001 -1.761446e+002
1459750000 -2.544356e-001 -1.777289e+002
1472000000 -1.663966e-001 -1.795419e+002
1484250000 -7.580224e-002 1.775721e+002
1496500000 -1.124471e-001 1.739820e+002
1508750000 -2.412122e-001 1.717140e+002
1521000000 -2.888173e-001 1.703817e+002
1533250000 -1.434508e-001 1.686203e+002
1545500000 -2.256778e-002 1.649932e+002
1557750000 -1.592988e-001 1.615833e+002
1570000000 -3.442286e-001 1.605248e+002
1582250000 -3.089450e-001 1.595677e+002
1594500000 -1.272428e-001 1.571012e+002
1606750000 -7.490422e-002 1.534248e+002
1619000000 -2.163185e-001 1.511925e+002
1631250000 -3.437827e-001 1.498145e+002
1643500000 -3.209799e-001 1.484229e+002
1655750000 -1.457995e-001 1.461767e+002
1668000000 -8.466414e-002 1.428007e+002
1680250000 -2.339243e-001 1.404356e+002
1692500000 -3.670918e-001 1.391941e+002
1704750000 -2.940264e-001 1.382183e+002
1717000000 -5.297267e-002 1.358162e+002
1729250000 1.194976e-002 1.318715e+002
1741500000 -2.415975e-001 1.296954e+002
1753750000 -4.157430e-001 1.290566e+002
1766000000 -3.131358e-001 1.278286e+002
1778250000 -1.652755e-002 1.251436e+002
1790500000 -9.277727e-002 1.216228e+002
1802750000 -3.461243e-001 1.200301e+002
1815000000 -4.072264e-001 1.190367e+002
1827250000 -2.135687e-001 1.180365e+002
1839500000 -7.250084e-002 1.148480e+002
1851750000 -2.278057e-001 1.116797e+002
1864000000 -3.937790e-001 1.102815e+002
1876250000 -4.001988e-001 1.096909e+002
1888500000 -2.675579e-001 1.079359e+002
1900750000 -1.038174e-001 1.050740e+002
1913000000 -2.275171e-001 1.025749e+002
1925250000 -3.865059e-001 1.008293e+002
1937500000 -4.244633e-001 9.987186e+001
1949750000 -2.252230e-001 9.825336e+001
1962000000 -1.208490e-001 9.534476e+001
1974250000 -2.762052e-001 9.278066e+001
1986500000 -4.509248e-001 9.142471e+001
1998750000 -3.665936e-001 9.041723e+001
2011000000 -2.021577e-001 8.825337e+001
2023250000 -2.043438e-001 8.529266e+001
2035500000 -3.374264e-001 8.328358e+001
2047750000 -4.528698e-001 8.168600e+001
2060000000 -3.851775e-001 8.018331e+001
2072250000 -2.805442e-001 7.768766e+001
2084500000 -3.338874e-001 7.532887e+001
2096750000 -4.153368e-001 7.347754e+001
2109000000 -4.923864e-001 7.180581e+001
2121250000 -4.405073e-001 6.968934e+001
2133500000 -4.382033e-001 6.714762e+001
2145750000 -4.704215e-001 6.494446e+001
2158000000 -5.353112e-001 6.241162e+001
2170250000 -5.512617e-001 6.041101e+001
2182500000 -5.533426e-001 5.793480e+001
2194750000 -6.090806e-001 5.546183e+001
2207000000 -5.779837e-001 5.302964e+001
2219250000 -6.511007e-001 5.052463e+001
2231500000 -6.978203e-001 4.746811e+001
2243750000 -8.192418e-001 4.422320e+001
2256000000 -9.095418e-001 4.110380e+001
2268250000 -9.392104e-001 3.777875e+001
2280500000 -1.018151e+000 3.353084e+001
2292750000 -1.220258e+000 2.858122e+001
2305000000 -1.663652e+000 2.397745e+001
2317250000 -1.815122e+000 1.887677e+001
2329500000 -1.986913e+000 1.189920e+001
2341750000 -2.762523e+000 2.395185e+000
2354000000 -4.278772e+000 -6.623797e+000
2366250000 -5.483019e+000 -1.881751e+001
2378500000 -6.741601e+000 -4.091942e+001
2390750000 -1.070141e+001 -7.612903e+001
2403000000 -1.341057e+001 -1.437150e+002
2415250000 -8.396792e+000 1.674498e+002
2427500000 -5.109844e+000 1.356034e+002
2439750000 -3.447160e+000 1.127986e+002
2452000000 -2.510644e+000 9.975047e+001
2464250000 -1.884048e+000 9.047535e+001
2476500000 -1.301332e+000 8.197050e+001
2488750000 -9.619769e-001 7.372265e+001
2501000000 -9.436148e-001 6.801750e+001
2513250000 -9.710565e-001 6.460680e+001
2525500000 -7.153063e-001 6.152123e+001
2537750000 -3.930392e-001 5.669366e+001
2550000000 -4.744785e-001 5.175463e+001
2562250000 -7.474203e-001 4.939856e+001
2574500000 -7.095492e-001 4.844580e+001
2586750000 -3.321179e-001 4.575265e+001
2599000000 -2.658873e-001 4.136302e+001
2611250000 -5.032783e-001 3.842107e+001
2623500000 -6.548076e-001 3.773168e+001
2635750000 -5.222384e-001 3.693150e+001
2648000000 -3.050139e-001 3.442794e+001
2660250000 -2.281601e-001 3.084852e+001
2672500000 -4.429058e-001 2.868085e+001
2684750000 -5.442168e-001 2.777573e+001
2697000000 -4.601625e-001 2.706170e+001
2709250000 -2.081189e-001 2.488980e+001
2721500000 -1.554034e-001 2.164232e+001
2733750000 -3.966075e-001 1.931938e+001
2746000000 -5.947359e-001 1.871417e+001
2758250000 -4.460905e-001 1.849588e+001
2770500000 -1.326836e-001 1.581382e+001
2782750000 -1.644979e-001 1.223456e+001
2795000000 -4.883690e-001 1.103372e+001
2807250000 -5.760331e-001 1.090177e+001
2819500000 -2.988088e-001 1.021380e+001
2831750000 -7.939655e-002 7.172585e+000
2844000000 -2.739868e-001 4.418239e+000
2856250000 -5.216474e-001 3.151664e+000
2868500000 -5.180361e-001 3.070730e+000
2880750000 -2.795771e-001 1.638027e+000
2893000000 -1.788548e-001 -9.208862e-001
2905250000 -3.206537e-001 -3.031355e+000
2917500000 -4.897602e-001 -4.076532e+000
2929750000 -4.447943e-001 -4.655456e+000
2942000000 -3.252174e-001 -5.824065e+000
2954250000 -1.786091e-001 -8.335621e+000
2966500000 -3.021205e-001 -1.057811e+001
2978750000 -4.633426e-001 -1.168819e+001
2991000000 -4.511260e-001 -1.209778e+001
3003250000 -2.174243e-001 -1.341891e+001
3015500000 -1.827102e-001 -1.613918e+001
3027750000 -3.559516e-001 -1.809195e+001
3040000000 -4.665861e-001 -1.908893e+001
3052250000 -4.145229e-001 -2.019624e+001
3064500000 -3.078201e-001 -2.169592e+001
3076750000 -2.556080e-001 -2.270906e+001
3089000000 -3.313677e-001 -2.488972e+001
3101250000 -4.284439e-001 -2.630436e+001
3113500000 -3.763017e-001 -2.727842e+001
3125750000 -1.971907e-001 -2.866053e+001
3138000000 -2.438620e-001 -3.086089e+001
3150250000 -4.250267e-001 -3.241085e+001
3162500000 -4.309560e-001 -3.324025e+001
3174750000 -2.852672e-001 -3.498579e+001
3187000000 -1.961363e-001 -3.736858e+001
3199250000 -3.975306e-001 -3.847121e+001
3211500000 -4.380152e-001 -3.915423e+001
3223750000 -2.909008e-001 -4.049769e+001
3236000000 -2.276021e-001 -4.316424e+001
3248250000 -3.684610e-001 -4.494206e+001
3260500000 -5.094541e-001 -4.517715e+001
3272750000 -4.182610e-001 -4.628755e+001
3285000000 -2.380750e-001 -4.881469e+001
3297250000 -3.448536e-001 -5.110645e+001
3309500000 -4.758849e-001 -5.142616e+001
3321750000 -4.727777e-001 -5.226112e+001
3334000000 -3.610099e-001 -5.382054e+001
3346250000 -3.682341e-001 -5.634220e+001
3358500000 -3.492257e-001 -5.777999e+001
3370750000 -3.937265e-001 -5.891585e+001
3383000000 -4.598962e-001 -6.012643e+001
3395250000 -4.386283e-001 -6.123625e+001
3407500000 -2.491626e-001 -6.340747e+001
3419750000 -2.487805e-001 -6.581071e+001
3432000000 -5.344691e-001 -6.695100e+001
3444250000 -6.204252e-001 -6.705315e+001
3456500000 -3.088687e-001 -6.803898e+001
3468750000 -1.345697e-001 -7.205035e+001
3481000000 -3.938760e-001 -7.475204e+001
3493250000 -6.692574e-001 -7.482972e+001
3505500000 -5.592067e-001 -7.428957e+001
3517750000 -2.665358e-001 -7.672834e+001
3530000000 -2.703074e-001 -8.037995e+001
3542250000 -5.568622e-001 -8.165943e+001
3554500000 -7.366582e-001 -8.175240e+001
3566750000 -5.762741e-001 -8.262808e+001
3579000000 -3.700805e-001 -8.519063e+001
3591250000 -3.924311e-001 -8.790823e+001
3603500000 -6.642826e-001 -8.928879e+001
3615750000 -7.828296e-001 -8.981950e+001
3628000000 -6.775545e-001 -9.036013e+001
3640250000 -4.177571e-001 -9.277998e+001
3652500000 -4.189791e-001 -9.578868e+001
3664750000 -7.261111e-001 -9.770663e+001
3677000000 -9.271587e-001 -9.782658e+001
3689250000 -7.464128e-001 -9.818748e+001
3701500000 -3.958614e-001 -1.011135e+002
3713750000 -5.644739e-001 -1.046000e+002
3726000000 -1.002038e+000 -1.060264e+002
3738250000 -1.094615e+000 -1.057708e+002
3750500000 -7.894458e-001 -1.066688e+002
3762750000 -6.680508e-001 -1.103024e+002
3775000000 -1.007507e+000 -1.130189e+002
3787250000 -1.265537e+000 -1.136845e+002
3799500000 -1.372928e+000 -1.141114e+002
3811750000 -1.207850e+000 -1.149977e+002
3824000000 -1.125355e+000 -1.179399e+002
3836250000 -1.401372e+000 -1.205303e+002
3848500000 -1.731605e+000 -1.203212e+002
3860750000 -1.818881e+000 -1.203777e+002
3873000000 -1.693271e+000 -1.202777e+002
3885250000 -1.553856e+000 -1.216210e+002
3897500000 -1.695672e+000 -1.233505e+002
3909750000 -1.908379e+000 -1.237613e+002
3922000000 -1.823775e+000 -1.231469e+002
3934250000 -1.403508e+000 -1.239852e+002
3946500000 -1.128446e+000 -1.267274e+002
3958750000 -1.304833e+000 -1.285979e+002
3971000000 -1.344368e+000 -1.287803e+002
3983250000 -1.138306e+000 -1.296701e+002
3995500000 -8.319983e-001 -1.324720e+002
4007750000 -8.691474e-001 -1.351001e+002
4020000000 -9.525034e-001 -1.364819e+002
4032250000 -8.759722e-001 -1.380133e+002
4044500000 -7.546422e-001 -1.402718e+002
4056750000 -6.990435e-001 -1.427236e+002
4069000000 -7.617744e-001 -1.440753e+002
4081250000 -7.580529e-001 -1.455912e+002
4093500000 -7.306747e-001 -1.474774e+002
4105750000 -7.178068e-001 -1.497230e+002
4118000000 -6.059821e-001 -1.517396e+002
4130250000 -5.940867e-001 -1.534466e+002
4142500000 -6.547195e-001 -1.558008e+002
4154750000 -6.760078e-001 -1.576862e+002
4167000000 -5.664255e-001 -1.591867e+002
4179250000 -4.854614e-001 -1.610310e+002
4191500000 -6.253582e-001 -1.630988e+002
4203750000 -6.714147e-001 -1.647866e+002
4216000000 -5.402291e-001 -1.668283e+002
4228250000 -4.561929e-001 -1.698690e+002
4240500000 -6.322993e-001 -1.721393e+002
4252750000 -7.121426e-001 -1.728110e+002
4265000000 -5.263306e-001 -1.739642e+002
4277250000 -4.249480e-001 -1.775712e+002
4289500000 -5.408675e-001 1.792398e+002
4301750000 -7.462199e-001 1.786629e+002
4314000000 -7.044530e-001 1.776385e+002
4326250000 -5.112864e-001 1.748527e+002
4338500000 -4.751000e-001 1.714745e+002
4350750000 -6.330369e-001 1.698134e+002
4363000000 -7.666548e-001 1.687762e+002
4375250000 -6.851052e-001 1.673906e+002
4387500000 -5.579625e-001 1.649654e+002
4399750000 -4.952092e-001 1.615005e+002
4412000000 -6.537848e-001 1.589014e+002
4424250000 -8.198755e-001 1.575467e+002
4436500000 -7.152423e-001 1.564408e+002
4448750000 -4.905667e-001 1.538118e+002
4461000000 -4.716215e-001 1.503430e+002
4473250000 -7.536914e-001 1.484587e+002
4485500000 -9.453477e-001 1.478401e+002
4497750000 -7.350636e-001 1.465853e+002
4510000000 -4.711857e-001 1.431469e+002
4522250000 -5.526128e-001 1.386799e+002
4534500000 -8.727654e-001 1.367371e+002
4546750000 -9.408148e-001 1.365886e+002
4559000000 -6.320515e-001 1.348609e+002
4571250000 -4.658614e-001 1.314288e+002
4583500000 -6.190282e-001 1.280566e+002
4595750000 -9.111791e-001 1.259190e+002
4608000000 -9.488923e-001 1.245229e+002
4620250000 -7.643761e-001 1.225318e+002
4632500000 -5.072440e-001 1.188779e+002
4644750000 -7.131922e-001 1.157605e+002
4657000000 -9.722779e-001 1.147044e+002
4669250000 -9.555643e-001 1.138177e+002
4681500000 -6.662922e-001 1.111263e+002
4693750000 -5.986394e-001 1.067378e+002
4706000000 -9.515579e-001 1.038797e+002
4718250000 -1.069603e+000 1.027460e+002
4730500000 -8.822991e-001 1.011002e+002
4742750000 -6.234038e-001 9.788421e+001
4755000000 -7.215817e-001 9.468845e+001
4767250000 -9.716431e-001 9.219073e+001
4779500000 -1.117062e+000 9.040140e+001
4791750000 -1.057792e+000 8.811565e+001
4804000000 -8.485873e-001 8.555296e+001
4816250000 -9.055375e-001 8.132555e+001
4828500000 -1.146207e+000 7.881498e+001
4840750000 -1.164697e+000 7.795657e+001
4853000000 -1.009130e+000 7.568489e+001
4865250000 -9.353234e-001 7.212604e+001
4877500000 -1.191575e+000 6.908015e+001
4889750000 -1.366996e+000 6.707015e+001
4902000000 -1.295314e+000 6.467036e+001
4914250000 -1.147845e+000 6.159992e+001
4926500000 -1.180828e+000 5.868739e+001
4938750000 -1.293788e+000 5.652998e+001
4951000000 -1.344987e+000 5.439988e+001
4963250000 -1.369562e+000 5.190828e+001
4975500000 -1.333653e+000 4.877642e+001
4987750000 -1.363140e+000 4.573042e+001
5000000000 -1.410345e+000 4.223545e+001
