!Agilent Technologies,E8362C,MY49020251,A.08.50.10
!Agilent E8362C: A.08.50.10
!Date: Tuesday, May 17, 2016 04:35:44
!Correction: S11(Full 1 Port(1)) 
!S1P File: Measurement: S11:
# Hz S  dB   R 50
100000000 -1.889184e-001 1.588309e+002
112250000 -1.071378e-001 1.560629e+002
124500000 2.120512e-002 1.538537e+002
136750000 8.828294e-002 1.514134e+002
149000000 3.115270e-002 1.484647e+002
161250000 -1.425060e-001 1.459480e+002
173500000 -1.294548e-001 1.436703e+002
185750000 1.506828e-002 1.405883e+002
198000000 1.744451e-002 1.378516e+002
210250000 -1.346151e-001 1.354762e+002
222500000 -1.887375e-001 1.333082e+002
234750000 -2.366950e-002 1.307057e+002
247000000 3.101642e-002 1.268521e+002
259250000 -1.036935e-001 1.250377e+002
271500000 -1.346858e-001 1.229942e+002
283750000 -3.086307e-002 1.201248e+002
296000000 1.813178e-002 1.164017e+002
308250000 -1.241299e-001 1.135788e+002
320500000 -2.194637e-001 1.120747e+002
332750000 -5.677220e-002 1.094076e+002
345000000 -2.719683e-002 1.054968e+002
357250000 -1.187894e-001 1.020539e+002
369500000 -2.473836e-001 1.005517e+002
381750000 -1.542204e-001 9.848834e+001
394000000 -3.553968e-002 9.512662e+001
406250000 -8.803838e-002 9.148415e+001
418500000 -1.230715e-001 8.899638e+001
430750000 -1.349307e-001 8.714844e+001
443000000 -1.608331e-001 8.422941e+001
455250000 -7.250618e-002 8.047086e+001
467500000 -4.461952e-002 7.730811e+001
479750000 -8.819110e-002 7.450919e+001
492000000 -1.501212e-001 7.216405e+001
504250000 -1.697232e-001 6.938858e+001
516500000 -7.704771e-002 6.584013e+001
528750000 -5.167624e-002 6.230490e+001
541000000 -1.801397e-001 5.898928e+001
553250000 -2.062743e-001 5.672831e+001
565500000 -1.218453e-001 5.430822e+001
577750000 -2.954476e-002 5.002184e+001
590000000 -8.797935e-002 4.604134e+001
602250000 -2.324298e-001 4.382218e+001
614500000 -2.235456e-001 4.149315e+001
626750000 -8.813683e-002 3.793258e+001
639000000 1.033757e-002 3.381688e+001
651250000 -1.653574e-001 3.013258e+001
663500000 -2.780595e-001 2.805952e+001
675750000 -2.361391e-001 2.548784e+001
688000000 -2.647686e-002 2.170371e+001
700250000 -9.180441e-002 1.700924e+001
712500000 -1.913495e-001 1.337379e+001
724750000 -2.888922e-001 1.114934e+001
737000000 -1.998452e-001 8.210290e+000
749250000 -3.381607e-002 4.874128e+000
761500000 -8.384395e-002 4.311651e-001
773750000 -2.155047e-001 -3.023087e+000
786000000 -2.096061e-001 -5.443991e+000
798250000 -1.362023e-001 -8.585509e+000
810500000 -6.766552e-002 -1.286906e+001
822750000 -1.905695e-001 -1.719157e+001
835000000 -2.372294e-001 -1.999633e+001
847250000 -2.279373e-001 -2.257809e+001
859500000 -1.391098e-001 -2.610739e+001
871750000 -5.762677e-002 -3.035054e+001
884000000 -1.652724e-001 -3.457345e+001
896250000 -2.463848e-001 -3.720843e+001
908500000 -2.082259e-001 -3.999941e+001
920750000 -1.025178e-001 -4.376901e+001
933000000 -8.715888e-002 -4.813122e+001
945250000 -1.910208e-001 -5.153518e+001
957500000 -2.172511e-001 -5.427981e+001
969750000 -1.431928e-001 -5.745867e+001
982000000 -9.109633e-002 -6.118999e+001
994250000 -9.738531e-002 -6.520924e+001
1006500000 -1.978595e-001 -6.869114e+001
1018750000 -1.941352e-001 -7.152193e+001
1031000000 -1.859246e-001 -7.451789e+001
1043250000 -8.770218e-002 -7.860138e+001
1055500000 -1.771173e-001 -8.202921e+001
1067750000 -2.141683e-001 -8.528833e+001
1080000000 -2.086682e-001 -8.794643e+001
1092250000 -1.406279e-001 -9.130284e+001
1104500000 -1.451922e-001 -9.488228e+001
1116750000 -1.457679e-001 -9.833652e+001
1129000000 -1.908120e-001 -1.012223e+002
1141250000 -1.737020e-001 -1.043309e+002
1153500000 -1.288276e-001 -1.073597e+002
1165750000 -1.387478e-001 -1.109016e+002
1178000000 -1.429679e-001 -1.139436e+002
1190250000 -1.613471e-001 -1.168519e+002
1202500000 -1.698883e-001 -1.201359e+002
1214750000 -1.863348e-001 -1.232350e+002
1227000000 -1.769019e-001 -1.258972e+002
1239250000 -1.670126e-001 -1.287784e+002
1251500000 -1.407640e-001 -1.318855e+002
1263750000 -1.583145e-001 -1.350390e+002
1276000000 -1.856615e-001 -1.379020e+002
1288250000 -2.183911e-001 -1.403417e+002
1300500000 -1.497719e-001 -1.432023e+002
1312750000 -1.216386e-001 -1.463451e+002
1325000000 -1.923322e-001 -1.491927e+002
1337250000 -2.430739e-001 -1.517319e+002
1349500000 -2.220573e-001 -1.540963e+002
1361750000 -1.333727e-001 -1.569940e+002
1374000000 -1.276903e-001 -1.599557e+002
1386250000 -2.188949e-001 -1.629076e+002
1398500000 -2.573546e-001 -1.650229e+002
1410750000 -1.969575e-001 -1.670599e+002
1423000000 -7.674822e-002 -1.697989e+002
1435250000 -1.417556e-001 -1.731206e+002
1447500000 -2.646476e-001 -1.757826e+002
1459750000 -2.854873e-001 -1.774338e+002
1472000000 -1.808049e-001 -1.792414e+002
1484250000 -9.053569e-002 1.779083e+002
1496500000 -1.530141e-001 1.744013e+002
1508750000 -2.806866e-001 1.721009e+002
1521000000 -3.033549e-001 1.708116e+002
1533250000 -1.563747e-001 1.689590e+002
1545500000 -1.410088e-002 1.656809e+002
1557750000 -1.765949e-001 1.624126e+002
1570000000 -2.999873e-001 1.610964e+002
1582250000 -2.907712e-001 1.596955e+002
1594500000 -1.352540e-001 1.574737e+002
1606750000 -7.531762e-002 1.542381e+002
1619000000 -2.025649e-001 1.514562e+002
1631250000 -3.486005e-001 1.499300e+002
1643500000 -3.366832e-001 1.486713e+002
1655750000 -1.571331e-001 1.467639e+002
1668000000 -7.486111e-002 1.432151e+002
1680250000 -2.267698e-001 1.404889e+002
1692500000 -4.155790e-001 1.395152e+002
1704750000 -3.172522e-001 1.389111e+002
1717000000 -1.042071e-002 1.361544e+002
1729250000 -9.085318e-002 1.323973e+002
1741500000 -3.772536e-001 1.304644e+002
1753750000 -4.565954e-001 1.297538e+002
1766000000 -2.558874e-001 1.286487e+002
1778250000 -5.535359e-002 1.255494e+002
1790500000 -1.652597e-001 1.223709e+002
1802750000 -3.173644e-001 1.209947e+002
1815000000 -3.605877e-001 1.197888e+002
1827250000 -2.320926e-001 1.183581e+002
1839500000 -9.262084e-002 1.156629e+002
1851750000 -1.432862e-001 1.126001e+002
1864000000 -3.290243e-001 1.107640e+002
1876250000 -4.022121e-001 1.098214e+002
1888500000 -2.570322e-001 1.085735e+002
1900750000 -8.707442e-002 1.058302e+002
1913000000 -2.139774e-001 1.028186e+002
1925250000 -4.075480e-001 1.011926e+002
1937500000 -3.955629e-001 1.007205e+002
1949750000 -2.346911e-001 9.900698e+001
1962000000 -1.450359e-001 9.564509e+001
1974250000 -3.037603e-001 9.320383e+001
1986500000 -4.596500e-001 9.211095e+001
1998750000 -3.620214e-001 9.106829e+001
2011000000 -1.930995e-001 8.876390e+001
2023250000 -2.398353e-001 8.603623e+001
2035500000 -3.797186e-001 8.423288e+001
2047750000 -4.157859e-001 8.274698e+001
2060000000 -3.208022e-001 8.079478e+001
2072250000 -3.283934e-001 7.867484e+001
2084500000 -3.704945e-001 7.661729e+001
2096750000 -3.629198e-001 7.475426e+001
2109000000 -3.984733e-001 7.267663e+001
2121250000 -4.563068e-001 7.070259e+001
2133500000 -4.462342e-001 6.860074e+001
2145750000 -3.452980e-001 6.616769e+001
2158000000 -4.671279e-001 6.357917e+001
2170250000 -5.473272e-001 6.168845e+001
2182500000 -5.343546e-001 5.957277e+001
2194750000 -4.823695e-001 5.703936e+001
2207000000 -5.074842e-001 5.435616e+001
2219250000 -6.217360e-001 5.231419e+001
2231500000 -6.116874e-001 4.980178e+001
2243750000 -7.600922e-001 4.636585e+001
2256000000 -8.778934e-001 4.308567e+001
2268250000 -8.963693e-001 4.045719e+001
2280500000 -9.135908e-001 3.689785e+001
2292750000 -1.097937e+000 3.220164e+001
2305000000 -1.483062e+000 2.787371e+001
2317250000 -1.639051e+000 2.385480e+001
2329500000 -1.694737e+000 1.847485e+001
2341750000 -2.303730e+000 1.060960e+001
2354000000 -3.557328e+000 3.092891e+000
2366250000 -4.658516e+000 -5.413543e+000
2378500000 -5.593968e+000 -2.084293e+001
2390750000 -8.883377e+000 -4.038024e+001
2403000000 -1.597094e+001 -7.507379e+001
2415250000 -1.492068e+001 -1.676519e+002
2427500000 -8.318021e+000 1.495870e+002
2439750000 -5.360209e+000 1.212380e+002
2452000000 -3.338797e+000 1.072795e+002
2464250000 -2.337438e+000 9.629005e+001
2476500000 -1.586281e+000 8.593948e+001
2488750000 -1.183210e+000 7.700853e+001
2501000000 -1.125395e+000 7.065953e+001
2513250000 -1.013894e+000 6.684385e+001
2525500000 -7.245078e-001 6.282487e+001
2537750000 -5.071436e-001 5.777135e+001
2550000000 -5.305741e-001 5.307465e+001
2562250000 -7.235457e-001 5.046913e+001
2574500000 -6.815562e-001 4.901951e+001
2586750000 -4.134418e-001 4.626178e+001
2599000000 -2.626355e-001 4.210659e+001
2611250000 -4.200953e-001 3.915368e+001
2623500000 -6.329209e-001 3.791873e+001
2635750000 -5.692442e-001 3.694415e+001
2648000000 -2.691560e-001 3.479073e+001
2660250000 -1.844933e-001 3.110501e+001
2672500000 -4.648540e-001 2.857775e+001
2684750000 -6.028932e-001 2.770836e+001
2697000000 -4.596673e-001 2.742234e+001
2709250000 -1.915232e-001 2.497492e+001
2721500000 -2.114611e-001 2.125705e+001
2733750000 -4.806084e-001 1.945957e+001
2746000000 -6.199867e-001 1.911081e+001
2758250000 -4.328800e-001 1.846271e+001
2770500000 -1.511558e-001 1.551251e+001
2782750000 -2.469555e-001 1.241286e+001
2795000000 -5.321991e-001 1.147567e+001
2807250000 -5.533435e-001 1.110488e+001
2819500000 -3.381644e-001 1.029144e+001
2831750000 -1.263284e-001 7.355811e+000
2844000000 -2.710471e-001 4.846453e+000
2856250000 -5.056738e-001 3.302276e+000
2868500000 -4.874496e-001 3.107513e+000
2880750000 -3.144523e-001 1.894885e+000
2893000000 -1.605697e-001 -6.426656e-001
2905250000 -2.452000e-001 -3.237186e+000
2917500000 -4.910451e-001 -4.356407e+000
2929750000 -5.238571e-001 -4.355951e+000
2942000000 -2.747354e-001 -5.625664e+000
2954250000 -1.663363e-001 -8.590604e+000
2966500000 -3.757698e-001 -1.093746e+001
2978750000 -5.562339e-001 -1.176260e+001
2991000000 -4.213506e-001 -1.194504e+001
3003250000 -2.342384e-001 -1.350805e+001
3015500000 -1.978593e-001 -1.619008e+001
3027750000 -3.863930e-001 -1.810804e+001
3040000000 -5.293220e-001 -1.918227e+001
3052250000 -4.460221e-001 -2.028954e+001
3064500000 -3.357807e-001 -2.148096e+001
3076750000 -2.321934e-001 -2.273275e+001
3089000000 -3.059533e-001 -2.494312e+001
3101250000 -4.753180e-001 -2.629259e+001
3113500000 -3.688601e-001 -2.703877e+001
3125750000 -1.976146e-001 -2.869611e+001
3138000000 -2.616920e-001 -3.112302e+001
3150250000 -4.796133e-001 -3.250507e+001
3162500000 -4.737056e-001 -3.311671e+001
3174750000 -2.730828e-001 -3.492496e+001
3187000000 -2.189960e-001 -3.748568e+001
3199250000 -4.432106e-001 -3.860229e+001
3211500000 -4.688681e-001 -3.884432e+001
3223750000 -3.020301e-001 -4.043774e+001
3236000000 -2.796163e-001 -4.348269e+001
3248250000 -4.573547e-001 -4.478879e+001
3260500000 -5.447394e-001 -4.481348e+001
3272750000 -4.337826e-001 -4.611950e+001
3285000000 -2.608579e-001 -4.886185e+001
3297250000 -3.869204e-001 -5.085087e+001
3309500000 -5.068414e-001 -5.119758e+001
3321750000 -4.503455e-001 -5.220058e+001
3334000000 -3.856707e-001 -5.403315e+001
3346250000 -4.062943e-001 -5.623423e+001
3358500000 -3.802936e-001 -5.752424e+001
3370750000 -3.934518e-001 -5.911088e+001
3383000000 -5.206442e-001 -6.030088e+001
3395250000 -4.979331e-001 -6.091467e+001
3407500000 -2.478326e-001 -6.330383e+001
3419750000 -2.511652e-001 -6.610679e+001
3432000000 -6.103999e-001 -6.718380e+001
3444250000 -7.078857e-001 -6.693821e+001
3456500000 -3.485182e-001 -6.787974e+001
3468750000 -1.682199e-001 -7.217760e+001
3481000000 -4.973840e-001 -7.459556e+001
3493250000 -7.466045e-001 -7.439241e+001
3505500000 -5.915636e-001 -7.410463e+001
3517750000 -2.698012e-001 -7.662435e+001
3530000000 -3.636255e-001 -8.036235e+001
3542250000 -6.120925e-001 -8.120265e+001
3554500000 -7.033363e-001 -8.131851e+001
3566750000 -5.697972e-001 -8.248724e+001
3579000000 -3.881269e-001 -8.490326e+001
3591250000 -4.037007e-001 -8.730411e+001
3603500000 -6.081564e-001 -8.872929e+001
3615750000 -7.620946e-001 -8.939466e+001
3628000000 -6.723621e-001 -9.019938e+001
3640250000 -4.054281e-001 -9.218786e+001
3652500000 -3.750541e-001 -9.528962e+001
3664750000 -6.901693e-001 -9.760578e+001
3677000000 -9.172073e-001 -9.773519e+001
3689250000 -6.953784e-001 -9.770839e+001
3701500000 -3.225433e-001 -1.009447e+002
3713750000 -5.026104e-001 -1.047261e+002
3726000000 -9.392551e-001 -1.058189e+002
3738250000 -1.026945e+000 -1.052909e+002
3750500000 -6.618822e-001 -1.064867e+002
3762750000 -5.949677e-001 -1.101051e+002
3775000000 -9.159310e-001 -1.124977e+002
3787250000 -1.119429e+000 -1.132308e+002
3799500000 -1.210076e+000 -1.139259e+002
3811750000 -1.029734e+000 -1.148866e+002
3824000000 -9.078633e-001 -1.180358e+002
3836250000 -1.144190e+000 -1.207794e+002
3848500000 -1.452665e+000 -1.213337e+002
3860750000 -1.634898e+000 -1.215637e+002
3873000000 -1.443240e+000 -1.216472e+002
3885250000 -1.279238e+000 -1.234148e+002
3897500000 -1.604755e+000 -1.259820e+002
3909750000 -1.955919e+000 -1.265844e+002
3922000000 -1.873744e+000 -1.251948e+002
3934250000 -1.486033e+000 -1.260074e+002
3946500000 -1.383134e+000 -1.286699e+002
3958750000 -1.605502e+000 -1.296611e+002
3971000000 -1.589728e+000 -1.294055e+002
3983250000 -1.306481e+000 -1.301077e+002
3995500000 -1.086719e+000 -1.330239e+002
4007750000 -1.097180e+000 -1.350211e+002
4020000000 -1.111312e+000 -1.360729e+002
4032250000 -1.000807e+000 -1.379335e+002
4044500000 -8.969733e-001 -1.403415e+002
4056750000 -8.226916e-001 -1.422553e+002
4069000000 -8.493584e-001 -1.431946e+002
4081250000 -8.091615e-001 -1.452529e+002
4093500000 -8.119297e-001 -1.475824e+002
4105750000 -7.609286e-001 -1.490582e+002
4118000000 -6.063424e-001 -1.510788e+002
4130250000 -5.699305e-001 -1.536510e+002
4142500000 -7.353877e-001 -1.560356e+002
4154750000 -7.709529e-001 -1.571244e+002
4167000000 -5.528579e-001 -1.589382e+002
4179250000 -4.716042e-001 -1.616312e+002
4191500000 -7.234253e-001 -1.634230e+002
4203750000 -7.569073e-001 -1.643841e+002
4216000000 -5.158647e-001 -1.668474e+002
4228250000 -4.561000e-001 -1.703550e+002
4240500000 -7.576446e-001 -1.721600e+002
4252750000 -8.108884e-001 -1.723772e+002
4265000000 -5.446540e-001 -1.739160e+002
4277250000 -4.547500e-001 -1.776983e+002
4289500000 -7.052493e-001 1.796334e+002
4301750000 -8.111902e-001 1.793026e+002
4314000000 -7.110755e-001 1.780246e+002
4326250000 -5.611256e-001 1.749818e+002
4338500000 -5.402728e-001 1.718090e+002
4350750000 -6.542739e-001 1.705260e+002
4363000000 -7.450371e-001 1.693797e+002
4375250000 -7.165821e-001 1.674178e+002
4387500000 -6.092007e-001 1.652456e+002
4399750000 -4.566945e-001 1.621101e+002
4412000000 -5.829673e-001 1.591512e+002
4424250000 -8.137622e-001 1.572672e+002
4436500000 -7.832438e-001 1.565249e+002
4448750000 -4.865994e-001 1.543558e+002
4461000000 -4.142133e-001 1.504431e+002
4473250000 -7.725427e-001 1.479661e+002
4485500000 -1.026989e+000 1.479223e+002
4497750000 -7.435577e-001 1.467683e+002
4510000000 -4.877544e-001 1.432296e+002
4522250000 -5.746311e-001 1.387847e+002
4534500000 -8.907030e-001 1.368219e+002
4546750000 -9.606104e-001 1.367507e+002
4559000000 -6.444497e-001 1.347802e+002
4571250000 -5.273027e-001 1.318200e+002
4583500000 -5.913602e-001 1.287049e+002
4595750000 -8.798493e-001 1.260315e+002
4608000000 -9.843351e-001 1.242542e+002
4620250000 -7.828202e-001 1.228364e+002
4632500000 -4.878329e-001 1.192585e+002
4644750000 -7.085603e-001 1.156248e+002
4657000000 -1.017701e+000 1.143703e+002
4669250000 -1.000432e+000 1.142145e+002
4681500000 -6.403093e-001 1.112867e+002
4693750000 -6.108687e-001 1.064045e+002
4706000000 -1.000317e+000 1.036887e+002
4718250000 -1.149946e+000 1.027568e+002
4730500000 -9.088142e-001 1.012671e+002
4742750000 -6.148703e-001 9.771023e+001
4755000000 -8.045793e-001 9.453449e+001
4767250000 -1.041348e+000 9.255266e+001
4779500000 -1.144422e+000 9.067056e+001
4791750000 -1.062766e+000 8.806784e+001
4804000000 -8.756422e-001 8.565620e+001
4816250000 -9.474068e-001 8.151212e+001
4828500000 -1.164503e+000 7.895544e+001
4840750000 -1.180655e+000 7.801749e+001
4853000000 -1.057692e+000 7.604039e+001
4865250000 -9.499056e-001 7.286429e+001
4877500000 -1.132630e+000 6.951968e+001
4889750000 -1.376701e+000 6.692231e+001
4902000000 -1.367409e+000 6.499484e+001
4914250000 -1.081238e+000 6.192077e+001
4926500000 -1.091452e+000 5.861564e+001
4938750000 -1.313874e+000 5.622877e+001
4951000000 -1.419592e+000 5.454934e+001
4963250000 -1.345100e+000 5.230180e+001
4975500000 -1.296159e+000 4.862661e+001
4987750000 -1.449521e+000 4.541989e+001
5000000000 -1.515651e+000 4.228503e+001
