!Agilent Technologies,E8362C,MY49020251,A.08.50.10
!Agilent E8362C: A.08.50.10
!Date: Saturday, May 14, 2016 07:14:23
!Correction: S11(Full 1 Port(1)) 
!S1P File: Measurement: S11:
# Hz S  dB   R 50
100000000 -2.944275e-002 1.604437e+002
114750000 -2.861416e-002 1.595717e+002
129500000 3.708325e-002 1.555919e+002
144250000 8.769291e-002 1.541202e+002
159000000 -1.167654e-002 1.499720e+002
173750000 5.115019e-002 1.477762e+002
188500000 -8.318511e-002 1.448239e+002
203250000 1.094725e-001 1.415231e+002
218000000 -7.354229e-002 1.392317e+002
232750000 -9.566628e-002 1.374831e+002
247500000 -4.663927e-002 1.351582e+002
262250000 1.416886e-001 1.312444e+002
277000000 2.786845e-002 1.285579e+002
291750000 -5.615728e-002 1.252801e+002
306500000 -1.930827e-001 1.228499e+002
321250000 -1.818431e-003 1.206602e+002
336000000 2.129405e-002 1.174006e+002
350750000 5.051412e-002 1.144456e+002
365500000 -7.343378e-002 1.117450e+002
380250000 -6.237835e-002 1.095935e+002
395000000 -1.417766e-002 1.070239e+002
409750000 2.777046e-002 1.044124e+002
424500000 -6.318870e-002 1.006545e+002
439250000 -1.513535e-001 9.917792e+001
454000000 -7.403285e-002 9.620892e+001
468750000 -3.116948e-002 9.362297e+001
483500000 -1.219371e-002 9.023238e+001
498250000 -1.265080e-001 8.714302e+001
513000000 -4.050558e-002 8.512420e+001
527750000 -1.455336e-001 8.256275e+001
542500000 -2.696675e-002 7.927913e+001
557250000 -8.974961e-002 7.717778e+001
572000000 -6.109795e-002 7.449896e+001
586750000 -7.003859e-002 7.188583e+001
601500000 -1.096850e-002 6.837405e+001
616250000 -4.375158e-002 6.568248e+001
631000000 -1.086918e-001 6.366249e+001
645750000 -4.101846e-002 6.128638e+001
660500000 4.345312e-002 5.816376e+001
675250000 2.458851e-002 5.513166e+001
690000000 -1.035783e-001 5.230834e+001
704750000 -6.031616e-002 5.012639e+001
719500000 -2.580258e-002 4.748198e+001
734250000 -6.310849e-002 4.509085e+001
749000000 -4.035668e-002 4.151497e+001
763750000 -8.687260e-002 3.866190e+001
778500000 -7.183264e-002 3.519136e+001
793250000 -9.288286e-003 3.304651e+001
808000000 -3.712458e-002 3.011047e+001
822750000 -3.483520e-002 2.763821e+001
837500000 -6.830069e-002 2.430995e+001
852250000 -1.986123e-002 2.188783e+001
867000000 -5.212814e-002 1.905206e+001
881750000 -4.752667e-002 1.622015e+001
896500000 -7.711253e-002 1.329444e+001
911250000 -3.544556e-002 1.049190e+001
926000000 -3.833251e-002 7.167144e+000
940750000 -1.005209e-001 4.791658e+000
955500000 -1.078786e-001 1.507998e+000
970250000 -4.681715e-002 -1.119057e+000
985000000 -5.492901e-002 -4.224759e+000
999750000 -3.182188e-002 -7.427951e+000
1014500000 -9.870833e-002 -1.043486e+001
1029250000 -4.489588e-002 -1.373265e+001
1044000000 -1.071189e-001 -1.628948e+001
1058750000 -2.590271e-002 -1.942488e+001
1073500000 -1.532830e-001 -2.224597e+001
1088250000 -1.389857e-001 -2.591738e+001
1103000000 -9.106076e-002 -2.891339e+001
1117750000 -1.116747e-001 -3.163901e+001
1132500000 -8.171996e-002 -3.536206e+001
1147250000 -1.549462e-001 -3.863853e+001
1162000000 -1.368366e-001 -4.144401e+001
1176750000 -6.425097e-002 -4.473994e+001
1191500000 -1.080383e-001 -4.802141e+001
1206250000 -1.433258e-001 -5.159288e+001
1221000000 -1.349315e-001 -5.455914e+001
1235750000 -1.024354e-001 -5.793750e+001
1250500000 -1.544992e-001 -6.110658e+001
1265250000 -1.210241e-001 -6.474575e+001
1280000000 -1.582879e-001 -6.821137e+001
1294750000 -1.485326e-001 -7.158624e+001
1309500000 -1.671648e-001 -7.444067e+001
1324250000 -1.648006e-001 -7.860770e+001
1339000000 -1.656360e-001 -8.185797e+001
1353750000 -2.238441e-001 -8.559068e+001
1368500000 -1.859937e-001 -8.940141e+001
1383250000 -2.138437e-001 -9.276685e+001
1398000000 -2.645943e-001 -9.646869e+001
1412750000 -2.478075e-001 -1.003294e+002
1427500000 -2.352356e-001 -1.038693e+002
1442250000 -2.352592e-001 -1.076026e+002
1457000000 -2.590068e-001 -1.115160e+002
1471750000 -2.663803e-001 -1.148666e+002
1486500000 -2.767273e-001 -1.192036e+002
1501250000 -2.577465e-001 -1.227053e+002
1516000000 -3.083798e-001 -1.265439e+002
1530750000 -3.418420e-001 -1.303425e+002
1545500000 -3.065968e-001 -1.344936e+002
1560250000 -3.455706e-001 -1.386026e+002
1575000000 -3.692354e-001 -1.419433e+002
1589750000 -3.760617e-001 -1.458788e+002
1604500000 -2.985280e-001 -1.499146e+002
1619250000 -3.612108e-001 -1.537581e+002
1634000000 -3.945953e-001 -1.578366e+002
1648750000 -4.373311e-001 -1.616241e+002
1663500000 -3.529569e-001 -1.653496e+002
1678250000 -3.681924e-001 -1.697637e+002
1693000000 -4.315584e-001 -1.739765e+002
1707750000 -4.798563e-001 -1.774692e+002
1722500000 -4.651445e-001 1.788423e+002
1737250000 -3.963526e-001 1.748603e+002
1752000000 -4.662956e-001 1.704547e+002
1766750000 -4.409514e-001 1.664857e+002
1781500000 -4.813035e-001 1.629005e+002
1796250000 -4.478137e-001 1.594306e+002
1811000000 -4.243243e-001 1.552734e+002
1825750000 -4.538058e-001 1.509970e+002
1840500000 -4.674285e-001 1.472379e+002
1855250000 -5.083471e-001 1.435838e+002
1870000000 -5.082260e-001 1.397657e+002
1884750000 -4.777844e-001 1.359139e+002
1899500000 -5.079548e-001 1.321942e+002
1914250000 -5.165498e-001 1.284081e+002
1929000000 -5.153024e-001 1.247710e+002
1943750000 -5.167521e-001 1.207692e+002
1958500000 -5.156959e-001 1.172907e+002
1973250000 -4.966386e-001 1.136747e+002
1988000000 -4.933619e-001 1.097003e+002
2002750000 -5.562684e-001 1.063414e+002
2017500000 -5.184685e-001 1.026922e+002
2032250000 -5.434917e-001 9.892644e+001
2047000000 -5.258635e-001 9.568748e+001
2061750000 -5.502653e-001 9.225986e+001
2076500000 -5.467550e-001 8.847915e+001
2091250000 -5.412241e-001 8.541760e+001
2106000000 -5.797625e-001 8.187413e+001
2120750000 -5.672640e-001 7.873087e+001
2135500000 -5.041878e-001 7.493853e+001
2150250000 -5.525764e-001 7.154110e+001
2165000000 -6.044093e-001 6.805048e+001
2179750000 -6.209995e-001 6.524075e+001
2194500000 -5.248806e-001 6.173219e+001
2209250000 -5.393977e-001 5.871442e+001
2224000000 -5.837403e-001 5.523686e+001
2238750000 -5.956126e-001 5.185332e+001
2253500000 -6.377364e-001 4.889874e+001
2268250000 -5.970104e-001 4.562738e+001
2283000000 -5.662763e-001 4.273780e+001
2297750000 -5.595114e-001 3.945414e+001
2312500000 -5.949429e-001 3.605854e+001
2327250000 -5.821199e-001 3.302773e+001
2342000000 -5.075821e-001 3.010076e+001
2356750000 -5.075034e-001 2.672276e+001
2371500000 -5.612234e-001 2.320272e+001
2386250000 -6.277769e-001 2.058070e+001
2401000000 -6.204138e-001 1.725807e+001
2415750000 -5.545405e-001 1.436851e+001
2430500000 -5.585601e-001 1.112500e+001
2445250000 -6.545954e-001 7.170671e+000
2460000000 -6.580001e-001 5.161043e+000
2474750000 -6.514992e-001 1.990200e+000
2489500000 -5.750603e-001 -1.119538e+000
2504250000 -5.681667e-001 -4.256773e+000
2519000000 -6.631722e-001 -7.782686e+000
2533750000 -7.070186e-001 -1.074455e+001
2548500000 -6.523091e-001 -1.341706e+001
2563250000 -6.487627e-001 -1.663847e+001
2578000000 -6.914095e-001 -1.981997e+001
2592750000 -7.234837e-001 -2.353608e+001
2607500000 -7.234639e-001 -2.602921e+001
2622250000 -6.560203e-001 -2.886321e+001
2637000000 -6.157644e-001 -3.183293e+001
2651750000 -6.500976e-001 -3.580393e+001
2666500000 -8.181310e-001 -3.899374e+001
2681250000 -7.542813e-001 -4.199338e+001
2696000000 -7.872074e-001 -4.491304e+001
2710750000 -6.931527e-001 -4.870418e+001
2725500000 -7.580495e-001 -5.229299e+001
2740250000 -8.238954e-001 -5.526200e+001
2755000000 -7.807416e-001 -5.855199e+001
2769750000 -7.590110e-001 -6.159320e+001
2784500000 -8.226907e-001 -6.521797e+001
2799250000 -8.217390e-001 -6.909621e+001
2814000000 -8.901237e-001 -7.162542e+001
2828750000 -8.507895e-001 -7.525388e+001
2843500000 -8.797210e-001 -7.858193e+001
2858250000 -8.572517e-001 -8.208423e+001
2873000000 -9.824684e-001 -8.578111e+001
2887750000 -9.714738e-001 -8.979392e+001
2902500000 -9.109439e-001 -9.268759e+001
2917250000 -9.368005e-001 -9.631441e+001
2932000000 -9.741567e-001 -1.000769e+002
2946750000 -9.958387e-001 -1.040538e+002
2961500000 -9.860656e-001 -1.075734e+002
2976250000 -1.073496e+000 -1.113924e+002
2991000000 -1.028638e+000 -1.147448e+002
3005750000 -1.057917e+000 -1.189529e+002
3020500000 -1.032158e+000 -1.223819e+002
3035250000 -1.175250e+000 -1.262167e+002
3050000000 -1.114080e+000 -1.305096e+002
3064750000 -1.187387e+000 -1.343259e+002
3079500000 -1.292276e+000 -1.382323e+002
3094250000 -1.177722e+000 -1.421750e+002
3109000000 -1.256050e+000 -1.464684e+002
3123750000 -1.293353e+000 -1.505091e+002
3138500000 -1.293315e+000 -1.542831e+002
3153250000 -1.301484e+000 -1.590262e+002
3168000000 -1.377787e+000 -1.631549e+002
3182750000 -1.468510e+000 -1.668711e+002
3197500000 -1.413823e+000 -1.709256e+002
3212250000 -1.419773e+000 -1.755220e+002
3227000000 -1.469298e+000 -1.799603e+002
3241750000 -1.570478e+000 1.758741e+002
3256500000 -1.611464e+000 1.725842e+002
3271250000 -1.595526e+000 1.679807e+002
3286000000 -1.586957e+000 1.630789e+002
3300750000 -1.667339e+000 1.580528e+002
3315500000 -1.843742e+000 1.539683e+002
3330250000 -1.871546e+000 1.507868e+002
3345000000 -1.793618e+000 1.464760e+002
3359750000 -1.794011e+000 1.411709e+002
3374500000 -1.897976e+000 1.363693e+002
3389250000 -2.125787e+000 1.322916e+002
3404000000 -2.111297e+000 1.290624e+002
3418750000 -1.983421e+000 1.246175e+002
3433500000 -2.038833e+000 1.190523e+002
3448250000 -2.186633e+000 1.137728e+002
3463000000 -2.398631e+000 1.100684e+002
3477750000 -2.470399e+000 1.073219e+002
3492500000 -2.324278e+000 1.027824e+002
3507250000 -2.407085e+000 9.644517e+001
3522000000 -2.663308e+000 9.179653e+001
3536750000 -2.819525e+000 8.813654e+001
3551500000 -2.796228e+000 8.438724e+001
3566250000 -2.733625e+000 7.989105e+001
3581000000 -2.812994e+000 7.363460e+001
3595750000 -3.075829e+000 6.880993e+001
3610500000 -3.328569e+000 6.499503e+001
3625250000 -3.409015e+000 6.128029e+001
3640000000 -3.479326e+000 5.661518e+001
3654750000 -3.624729e+000 5.036483e+001
3669500000 -3.884958e+000 4.534344e+001
3684250000 -4.190676e+000 4.051833e+001
3699000000 -4.447069e+000 3.582309e+001
3713750000 -4.586656e+000 3.088643e+001
3728500000 -4.888403e+000 2.441355e+001
3743250000 -5.302989e+000 1.843553e+001
3758000000 -5.756533e+000 1.299665e+001
3772750000 -6.255183e+000 7.269336e+000
3787500000 -6.696150e+000 1.327374e+000
3802250000 -7.215493e+000 -5.908995e+000
3817000000 -7.834718e+000 -1.319653e+001
3831750000 -8.654792e+000 -2.130458e+001
3846500000 -9.576403e+000 -2.953643e+001
3861250000 -1.066037e+001 -3.948188e+001
3876000000 -1.203633e+001 -4.921303e+001
3890750000 -1.328608e+001 -6.147598e+001
3905500000 -1.467081e+001 -7.954040e+001
3920250000 -1.611251e+001 -1.024419e+002
3935000000 -1.669014e+001 -1.281430e+002
3949750000 -1.629883e+001 -1.548258e+002
3964500000 -1.515843e+001 -1.773234e+002
3979250000 -1.353532e+001 1.645646e+002
3994000000 -1.204385e+001 1.514511e+002
4008750000 -1.062415e+001 1.407595e+002
4023500000 -9.335761e+000 1.301894e+002
4038250000 -8.326228e+000 1.210184e+002
4053000000 -7.546566e+000 1.132110e+002
4067750000 -6.869436e+000 1.064190e+002
4082500000 -6.229550e+000 1.001866e+002
4097250000 -5.528569e+000 9.392660e+001
4112000000 -5.019552e+000 8.783961e+001
4126750000 -4.682847e+000 8.264248e+001
4141500000 -4.235821e+000 7.666749e+001
4156250000 -3.986056e+000 7.164545e+001
4171000000 -3.712559e+000 6.770420e+001
4185750000 -3.419167e+000 6.264203e+001
4200500000 -3.157662e+000 5.839635e+001
4215250000 -2.968871e+000 5.406606e+001
4230000000 -2.825666e+000 4.920786e+001
4244750000 -2.702124e+000 4.613526e+001
4259500000 -2.553549e+000 4.230094e+001
4274250000 -2.344804e+000 3.892025e+001
4289000000 -2.213999e+000 3.463547e+001
4303750000 -2.224898e+000 3.072639e+001
4318500000 -2.200009e+000 2.761464e+001
4333250000 -2.032806e+000 2.505194e+001
4348000000 -1.906411e+000 2.182230e+001
4362750000 -1.873349e+000 1.812099e+001
4377500000 -1.883044e+000 1.475688e+001
4392250000 -1.935593e+000 1.221744e+001
4407000000 -1.768937e+000 1.029851e+001
4421750000 -1.585149e+000 6.788550e+000
4436500000 -1.652837e+000 3.201506e+000
4451250000 -1.688519e+000 1.668140e-001
4466000000 -1.737722e+000 -1.771777e+000
4480750000 -1.597115e+000 -3.377138e+000
4495500000 -1.518736e+000 -7.194836e+000
4510250000 -1.577746e+000 -9.865047e+000
4525000000 -1.519044e+000 -1.224820e+001
4539750000 -1.544863e+000 -1.484181e+001
4554500000 -1.479478e+000 -1.733147e+001
4569250000 -1.641789e+000 -2.024805e+001
4584000000 -1.649696e+000 -2.210400e+001
4598750000 -1.498497e+000 -2.376515e+001
4613500000 -1.392514e+000 -2.680692e+001
4628250000 -1.453224e+000 -3.027456e+001
4643000000 -1.611584e+000 -3.236459e+001
4657750000 -1.598942e+000 -3.377280e+001
4672500000 -1.398686e+000 -3.588849e+001
4687250000 -1.327146e+000 -3.955268e+001
4702000000 -1.449380e+000 -4.260330e+001
4716750000 -1.601640e+000 -4.396544e+001
4731500000 -1.564793e+000 -4.518525e+001
4746250000 -1.389203e+000 -4.760812e+001
4761000000 -1.373134e+000 -5.129682e+001
4775750000 -1.526300e+000 -5.399148e+001
4790500000 -1.679532e+000 -5.561328e+001
4805250000 -1.583187e+000 -5.769696e+001
4820000000 -1.601647e+000 -6.012005e+001
4834750000 -1.569578e+000 -6.254206e+001
4849500000 -1.621037e+000 -6.467104e+001
4864250000 -1.641363e+000 -6.694799e+001
4879000000 -1.800309e+000 -6.908749e+001
4893750000 -1.717127e+000 -7.046033e+001
4908500000 -1.570168e+000 -7.320012e+001
4923250000 -1.634292e+000 -7.702930e+001
4938000000 -1.825577e+000 -7.954969e+001
4952750000 -1.959645e+000 -8.039993e+001
4967500000 -1.860699e+000 -8.202969e+001
4982250000 -1.744262e+000 -8.511882e+001
4997000000 -1.820237e+000 -8.854048e+001
5011750000 -2.018091e+000 -9.067226e+001
5026500000 -2.101343e+000 -9.214796e+001
5041250000 -1.935903e+000 -9.370734e+001
5056000000 -1.826989e+000 -9.736874e+001
5070750000 -1.951389e+000 -1.007024e+002
5085500000 -2.175256e+000 -1.027011e+002
5100250000 -2.212087e+000 -1.038900e+002
5115000000 -2.138667e+000 -1.065209e+002
5129750000 -2.060774e+000 -1.099137e+002
5144500000 -2.189880e+000 -1.130894e+002
5159250000 -2.445911e+000 -1.147599e+002
5174000000 -2.344596e+000 -1.165731e+002
5188750000 -2.203897e+000 -1.192222e+002
5203500000 -2.211437e+000 -1.227016e+002
5218250000 -2.335428e+000 -1.261610e+002
5233000000 -2.527023e+000 -1.284442e+002
5247750000 -2.574251e+000 -1.303756e+002
5262500000 -2.407457e+000 -1.331345e+002
5277250000 -2.443679e+000 -1.371724e+002
5292000000 -2.679475e+000 -1.409421e+002
5306750000 -2.811064e+000 -1.431570e+002
5321500000 -2.823133e+000 -1.456039e+002
5336250000 -2.722112e+000 -1.490662e+002
5351000000 -2.796998e+000 -1.533685e+002
5365750000 -3.004661e+000 -1.571035e+002
5380500000 -3.221172e+000 -1.600159e+002
5395250000 -3.242400e+000 -1.630207e+002
5410000000 -3.251201e+000 -1.668616e+002
5424750000 -3.375191e+000 -1.714857e+002
5439500000 -3.654735e+000 -1.758705e+002
5454250000 -3.883297e+000 -1.795124e+002
5469000000 -3.955436e+000 1.764422e+002
5483750000 -4.103486e+000 1.719123e+002
5498500000 -4.261008e+000 1.665635e+002
5513250000 -4.624823e+000 1.606322e+002
5528000000 -4.991094e+000 1.551913e+002
5542750000 -5.363534e+000 1.498815e+002
5557500000 -5.793616e+000 1.440964e+002
5572250000 -6.300524e+000 1.370079e+002
5587000000 -6.962298e+000 1.292934e+002
5601750000 -7.864401e+000 1.201924e+002
5616500000 -9.179192e+000 1.117935e+002
5631250000 -1.053815e+001 1.025284e+002
5646000000 -1.238585e+001 9.139906e+001
5660750000 -1.500539e+001 7.636089e+001
5675500000 -1.861781e+001 5.292954e+001
5690250000 -2.266289e+001 7.906010e+000
5705000000 -2.167933e+001 -5.276623e+001
5719750000 -1.737130e+001 -8.462881e+001
5734500000 -1.409663e+001 -1.039672e+002
5749250000 -1.204689e+001 -1.168822e+002
5764000000 -1.047832e+001 -1.273137e+002
5778750000 -9.384500e+000 -1.364617e+002
5793500000 -8.405679e+000 -1.436746e+002
5808250000 -7.511975e+000 -1.506543e+002
5823000000 -6.685300e+000 -1.572925e+002
5837750000 -6.165096e+000 -1.643374e+002
5852500000 -5.907292e+000 -1.702491e+002
5867250000 -5.478304e+000 -1.754500e+002
5882000000 -5.025730e+000 -1.796934e+002
5896750000 -4.583381e+000 1.743010e+002
5911500000 -4.266324e+000 1.679761e+002
5926250000 -4.170208e+000 1.632782e+002
5941000000 -3.988635e+000 1.593856e+002
5955750000 -3.579209e+000 1.553327e+002
5970500000 -3.175981e+000 1.503395e+002
5985250000 -2.922110e+000 1.444925e+002
6000000000 -2.830782e+000 1.409541e+002
